 (2019-02-07 16:16:06.763359)  can0  003   [8]  F0 9F E4 9F 95 9F 84 9F
 (2019-02-07 16:16:06.763454)  can0  004   [8]  C5 9F 95 9F A2 9F F8 9F
 (2019-02-07 16:16:06.763797)  can0  005   [8]  00 00 00 00 00 00 00 00
 (2019-02-07 16:16:06.764018)  can0  006   [8]  00 00 00 00 00 00 0C 00
 (2019-02-07 16:16:06.767904)  can0  000   [8]  00 00 00 00 00 00 00 00
 (2019-02-07 16:16:06.768084)  can0  001   [7]  00 00 00 00 00 00 00
 (2019-02-07 16:16:06.768253)  can0  002   [4]  00 BC 00 16
 (2019-02-07 16:16:06.805468)  can0  003   [8]  F8 9F E7 9F 93 9F 82 9F
 (2019-02-07 16:16:06.805686)  can0  004   [8]  CB 9F 93 9F A1 9F ED 9F
 (2019-02-07 16:16:06.805933)  can0  005   [8]  00 00 00 00 00 00 00 00
 (2019-02-07 16:16:06.806179)  can0  006   [8]  00 00 00 00 00 00 0C 00
 (2019-02-07 16:16:06.810046)  can0  000   [8]  00 00 00 00 00 00 00 00
 (2019-02-07 16:16:06.810273)  can0  001   [7]  00 00 00 00 00 00 00
 (2019-02-07 16:16:06.810446)  can0  002   [4]  00 BC 00 16
 (2019-02-07 16:16:06.847694)  can0  003   [8]  F9 9F E8 9F 8D 9F 80 9F
 (2019-02-07 16:16:06.847900)  can0  004   [8]  CB 9F 95 9F A5 9F F9 9F
 (2019-02-07 16:16:06.848146)  can0  005   [8]  00 00 00 00 00 00 00 00
 (2019-02-07 16:16:06.848390)  can0  006   [8]  00 00 00 00 00 00 0C 00
 (2019-02-07 16:16:06.852250)  can0  000   [8]  00 00 00 00 00 00 00 00
 (2019-02-07 16:16:06.852475)  can0  001   [7]  00 00 00 00 00 00 00
 (2019-02-07 16:16:06.852649)  can0  002   [4]  00 BC 00 16
 (2019-02-07 16:16:06.889883)  can0  003   [8]  F4 9F EA 9F 8D 9F 86 9F
 (2019-02-07 16:16:06.890097)  can0  004   [8]  CF 9F 8C 9F AD 9F F3 9F
 (2019-02-07 16:16:06.890344)  can0  005   [8]  00 00 00 00 00 00 00 00
 (2019-02-07 16:16:06.890591)  can0  006   [8]  00 00 00 00 00 00 0C 00
 (2019-02-07 16:16:06.894452)  can0  000   [8]  00 00 00 00 00 00 00 00
 (2019-02-07 16:16:06.894680)  can0  001   [7]  00 00 00 00 00 00 00
 (2019-02-07 16:16:06.894854)  can0  002   [4]  00 BC 00 16
 (2019-02-07 16:16:06.932178)  can0  003   [8]  FA 9F E4 9F 8B 9F 82 9F
 (2019-02-07 16:16:06.932327)  can0  004   [8]  C9 9F 93 9F A5 9F FB 9F
 (2019-02-07 16:16:06.932587)  can0  005   [8]  00 00 00 00 00 00 00 00
 (2019-02-07 16:16:06.932840)  can0  006   [8]  00 00 00 00 00 00 0C 00
 (2019-02-07 16:16:06.936711)  can0  000   [8]  00 00 00 00 00 00 00 00
 (2019-02-07 16:16:06.936931)  can0  001   [7]  00 00 00 00 00 00 00
 (2019-02-07 16:16:06.937097)  can0  002   [4]  00 BC 00 16
 (2019-02-07 16:16:06.974314)  can0  003   [8]  F6 9F E2 9F 97 9F 82 9F
 (2019-02-07 16:16:06.974538)  can0  004   [8]  CF 9F 94 9F A0 9F F5 9F
 (2019-02-07 16:16:06.974788)  can0  005   [8]  00 00 00 00 00 00 00 00
 (2019-02-07 16:16:06.975034)  can0  006   [8]  00 00 00 00 00 00 0C 00
 (2019-02-07 16:16:06.978896)  can0  000   [8]  00 00 00 00 00 00 00 00
 (2019-02-07 16:16:06.979126)  can0  001   [7]  00 00 00 00 00 00 00
 (2019-02-07 16:16:06.979298)  can0  002   [4]  00 BC 00 16
 (2019-02-07 16:16:07.016524)  can0  003   [8]  F4 9F E6 9F 95 9F 81 9F
 (2019-02-07 16:16:07.016759)  can0  004   [8]  C5 9F 97 9F A7 9F F9 9F
 (2019-02-07 16:16:07.016989)  can0  005   [8]  00 00 00 00 00 00 00 00
 (2019-02-07 16:16:07.017233)  can0  006   [8]  00 00 00 00 00 00 0C 00
 (2019-02-07 16:16:07.021102)  can0  000   [8]  00 00 00 00 00 00 00 00
 (2019-02-07 16:16:07.021330)  can0  001   [7]  00 00 00 00 00 00 00
 (2019-02-07 16:16:07.021500)  can0  002   [4]  00 BC 00 16
 (2019-02-07 16:16:07.058732)  can0  003   [8]  F3 9F E6 9F 93 9F 8A 9F
 (2019-02-07 16:16:07.058942)  can0  004   [8]  CF 9F 8F 9F A5 9F F5 9F
 (2019-02-07 16:16:07.059189)  can0  005   [8]  00 00 00 00 00 00 00 00
 (2019-02-07 16:16:07.059439)  can0  006   [8]  00 00 00 00 00 00 0C 00
 (2019-02-07 16:16:07.063399)  can0  000   [8]  00 00 00 00 00 00 00 00
 (2019-02-07 16:16:07.063495)  can0  001   [7]  00 00 00 00 00 00 00
 (2019-02-07 16:16:07.063723)  can0  002   [4]  00 BC 00 16
 (2019-02-07 16:16:07.100995)  can0  003   [8]  F0 9F E9 9F 95 9F 7F 9F
 (2019-02-07 16:16:07.101099)  can0  004   [8]  CE 9F 95 9F A5 9F FB 9F
 (2019-02-07 16:16:07.101413)  can0  005   [8]  00 00 00 00 00 00 00 00
 (2019-02-07 16:16:07.101656)  can0  006   [8]  00 00 00 00 00 00 0C 00
 (2019-02-07 16:16:07.105543)  can0  000   [8]  00 00 00 00 00 00 00 00
 (2019-02-07 16:16:07.105741)  can0  001   [7]  00 00 00 00 00 00 00
 (2019-02-07 16:16:07.105909)  can0  002   [4]  00 BC 00 16
 (2019-02-07 16:16:07.143127)  can0  003   [8]  F6 9F E8 9F 8D 9F 85 9F
 (2019-02-07 16:16:07.143348)  can0  004   [8]  CB 9F 9B 9F A1 9F F5 9F
 (2019-02-07 16:16:07.143594)  can0  005   [8]  00 00 00 00 00 00 00 00
 (2019-02-07 16:16:07.143835)  can0  006   [8]  00 00 00 00 00 00 0C 00
 (2019-02-07 16:16:07.147705)  can0  000   [8]  00 00 00 00 00 00 00 00
 (2019-02-07 16:16:07.147933)  can0  001   [7]  00 00 00 00 00 00 00
 (2019-02-07 16:16:07.148108)  can0  002   [4]  00 BC 00 16
 (2019-02-07 16:16:07.185329)  can0  003   [8]  F6 9F E5 9F 8B 9F 84 9F
 (2019-02-07 16:16:07.185551)  can0  004   [8]  CE 9F 8F 9F A5 9F F9 9F
 (2019-02-07 16:16:07.185797)  can0  005   [8]  00 00 00 00 00 00 00 00
 (2019-02-07 16:16:07.186045)  can0  006   [8]  00 00 00 00 00 00 0C 00
 (2019-02-07 16:16:07.189906)  can0  000   [8]  00 00 00 00 00 00 00 00
 (2019-02-07 16:16:07.190133)  can0  001   [7]  00 00 00 00 00 00 00
 (2019-02-07 16:16:07.190307)  can0  002   [4]  00 BC 00 16
 (2019-02-07 16:16:07.227529)  can0  003   [8]  F8 9F E7 9F 93 9F 86 9F
 (2019-02-07 16:16:07.227744)  can0  004   [8]  CD 9F 91 9F A9 9F F7 9F
 (2019-02-07 16:16:07.227993)  can0  005   [8]  00 00 00 00 00 00 00 00
 (2019-02-07 16:16:07.228242)  can0  006   [8]  00 00 00 00 00 00 0C 00
 (2019-02-07 16:16:07.232164)  can0  000   [8]  00 00 00 00 00 00 00 00
 (2019-02-07 16:16:07.232341)  can0  001   [7]  00 00 00 00 00 00 00
 (2019-02-07 16:16:07.232508)  can0  002   [4]  00 BC 00 16
 (2019-02-07 16:16:07.269822)  can0  003   [8]  F5 9F EA 9F 8F 9F 81 9F
 (2019-02-07 16:16:07.269921)  can0  004   [8]  D1 9F 93 9F A7 9F FD 9F
 (2019-02-07 16:16:07.270225)  can0  005   [8]  00 00 00 00 00 00 00 00
 (2019-02-07 16:16:07.270456)  can0  006   [8]  00 00 00 00 00 00 0C 00
 (2019-02-07 16:16:07.274406)  can0  000   [8]  00 00 00 00 00 00 00 00
 (2019-02-07 16:16:07.274506)  can0  001   [7]  00 00 00 00 00 00 00
 (2019-02-07 16:16:07.274742)  can0  002   [4]  00 BC 00 16
 (2019-02-07 16:16:07.311988)  can0  003   [8]  F2 9F E2 9F 8E 9F 85 9F
 (2019-02-07 16:16:07.312234)  can0  004   [8]  CB 9F 97 9F 9F 9F 01 A0
 (2019-02-07 16:16:07.312419)  can0  005   [8]  00 00 00 00 00 00 00 00
 (2019-02-07 16:16:07.312698)  can0  006   [8]  00 00 00 00 00 00 0C 00
 (2019-02-07 16:16:07.316516)  can0  000   [8]  00 00 00 00 00 00 00 00
 (2019-02-07 16:16:07.316752)  can0  001   [7]  00 00 00 00 00 00 00
 (2019-02-07 16:16:07.316912)  can0  002   [4]  00 BC 00 16
 (2019-02-07 16:16:15.788498)  can0  003   [8]  F8 9F E4 9F 8D 9F 7D 9F
 (2019-02-07 16:16:15.788606)  can0  004   [8]  CF 9F 95 9F 9F 9F 95 9F
 (2019-02-07 16:16:15.788895)  can0  005   [8]  00 00 00 00 00 00 00 00
 (2019-02-07 16:16:15.789123)  can0  006   [8]  00 00 00 00 00 00 0C 00
 (2019-02-07 16:16:15.792981)  can0  000   [8]  00 00 00 00 00 00 00 00
 (2019-02-07 16:16:15.793200)  can0  001   [7]  00 00 00 00 00 00 00
 (2019-02-07 16:16:15.793374)  can0  002   [4]  00 BC 00 16
 (2019-02-07 16:16:24.264935)  can0  003   [8]  85 9F EA 9F 95 9F 80 9F
 (2019-02-07 16:16:24.265035)  can0  004   [8]  C9 9F 91 9F A1 9F D7 9F
 (2019-02-07 16:16:24.265334)  can0  005   [8]  00 00 00 00 00 00 00 00
 (2019-02-07 16:16:24.265575)  can0  006   [8]  00 00 00 00 00 00 0C 00
 (2019-02-07 16:16:24.269427)  can0  000   [8]  00 00 00 00 00 00 00 00
 (2019-02-07 16:16:24.269653)  can0  001   [7]  00 00 00 00 00 00 00
 (2019-02-07 16:16:24.269822)  can0  002   [4]  00 BC 00 16
 (2019-02-07 16:16:24.307032)  can0  003   [8]  88 9F E1 9F 8D 9F 84 9F
 (2019-02-07 16:16:24.307252)  can0  004   [8]  CB 9F 95 9F A1 9F D9 9F
 (2019-02-07 16:16:24.307502)  can0  005   [8]  00 00 00 00 00 00 00 00
 (2019-02-07 16:16:24.307751)  can0  006   [8]  00 00 00 00 00 00 0C 00
 (2019-02-07 16:16:24.311617)  can0  000   [8]  00 00 00 00 00 00 00 00
 (2019-02-07 16:16:24.311846)  can0  001   [7]  00 00 00 00 00 00 00
 (2019-02-07 16:16:24.312020)  can0  002   [4]  00 BC 00 16
 (2019-02-07 16:16:24.349265)  can0  003   [8]  8C 9F E4 9F 8F 9F 86 9F
 (2019-02-07 16:16:24.349473)  can0  004   [8]  C7 9F 97 9F A2 9F D5 9F
 (2019-02-07 16:16:24.349716)  can0  005   [8]  00 00 00 00 00 00 00 00
 (2019-02-07 16:16:24.349963)  can0  006   [8]  00 00 00 00 00 00 0C 00
 (2019-02-07 16:16:24.353837)  can0  000   [8]  00 00 00 00 00 00 00 00
 (2019-02-07 16:16:24.354065)  can0  001   [7]  00 00 00 00 00 00 00
 (2019-02-07 16:16:24.354230)  can0  002   [4]  00 BC 00 16
 (2019-02-07 16:16:24.391454)  can0  003   [8]  8E 9F E3 9F 93 9F 84 9F
 (2019-02-07 16:16:24.391669)  can0  004   [8]  C1 9F 96 9F A6 9F D9 9F
 (2019-02-07 16:16:24.391913)  can0  005   [8]  00 00 00 00 00 00 00 00
 (2019-02-07 16:16:24.392176)  can0  006   [8]  00 00 00 00 00 00 0C 00
 (2019-02-07 16:16:24.396025)  can0  000   [8]  00 00 00 00 00 00 00 00
 (2019-02-07 16:16:24.396254)  can0  001   [7]  00 00 00 00 00 00 00
 (2019-02-07 16:16:24.396426)  can0  002   [4]  00 BC 00 16
 (2019-02-07 16:16:24.433654)  can0  003   [8]  8C 9F E3 9F 93 9F 7B 9F
 (2019-02-07 16:16:24.433870)  can0  004   [8]  C9 9F 9A 9F A3 9F DC 9F
 (2019-02-07 16:16:24.434118)  can0  005   [8]  00 00 00 00 00 00 00 00
 (2019-02-07 16:16:24.434365)  can0  006   [8]  00 00 00 00 00 00 0C 00
 (2019-02-07 16:16:24.438228)  can0  000   [8]  00 00 00 00 00 00 00 00
 (2019-02-07 16:16:24.438459)  can0  001   [7]  00 00 00 00 00 00 00
 (2019-02-07 16:16:24.438628)  can0  002   [4]  00 BC 00 16
 (2019-02-07 16:16:24.475845)  can0  003   [8]  89 9F E8 9F 93 9F 7E 9F
 (2019-02-07 16:16:24.476079)  can0  004   [8]  CC 9F 96 9F 9F 9F DC 9F
 (2019-02-07 16:16:24.476321)  can0  005   [8]  00 00 00 00 00 00 00 00
 (2019-02-07 16:16:24.476568)  can0  006   [8]  00 00 00 00 00 00 0C 00
 (2019-02-07 16:16:24.480427)  can0  000   [8]  00 00 00 00 00 00 00 00
 (2019-02-07 16:16:24.480659)  can0  001   [7]  00 00 00 00 00 00 00
 (2019-02-07 16:16:24.480833)  can0  002   [4]  00 BC 00 16
 (2019-02-07 16:16:24.518039)  can0  003   [8]  8C 9F E8 9F 8F 9F 83 9F
 (2019-02-07 16:16:24.518269)  can0  004   [8]  C3 9F 91 9F A6 9F D3 9F
 (2019-02-07 16:16:24.518512)  can0  005   [8]  00 00 00 00 00 00 00 00
 (2019-02-07 16:16:24.518769)  can0  006   [8]  00 00 00 00 00 00 0C 00
 (2019-02-07 16:16:24.522631)  can0  000   [8]  00 00 00 00 00 00 00 00
 (2019-02-07 16:16:24.522864)  can0  001   [7]  00 00 00 00 00 00 00
 (2019-02-07 16:16:24.523029)  can0  002   [4]  00 BC 00 16
 (2019-02-07 16:16:24.560304)  can0  003   [8]  8E 9F E4 9F 8E 9F 82 9F
 (2019-02-07 16:16:24.560475)  can0  004   [8]  CD 9F 90 9F A3 9F DB 9F
 (2019-02-07 16:16:24.560729)  can0  005   [8]  00 00 00 00 00 00 00 00
 (2019-02-07 16:16:24.560966)  can0  006   [8]  00 00 00 00 00 00 0C 00
 (2019-02-07 16:16:24.564846)  can0  000   [8]  00 00 00 00 00 00 00 00
 (2019-02-07 16:16:24.565067)  can0  001   [7]  00 00 00 00 00 00 00
 (2019-02-07 16:16:24.565234)  can0  002   [4]  00 BC 00 16
 (2019-02-07 16:16:24.602446)  can0  003   [8]  8C 9F E4 9F 8F 9F 86 9F
 (2019-02-07 16:16:24.602676)  can0  004   [8]  CF 9F 97 9F A3 9F DB 9F
 (2019-02-07 16:16:24.602923)  can0  005   [8]  00 00 00 00 00 00 00 00
 (2019-02-07 16:16:24.603170)  can0  006   [8]  00 00 00 00 00 00 0C 00
 (2019-02-07 16:16:24.607043)  can0  000   [8]  00 00 00 00 00 00 00 00
 (2019-02-07 16:16:24.607270)  can0  001   [7]  00 00 00 00 00 00 00
 (2019-02-07 16:16:24.607434)  can0  002   [4]  00 BC 00 16
 (2019-02-07 16:16:24.644692)  can0  003   [8]  94 9F E6 9F 95 9F 81 9F
 (2019-02-07 16:16:24.644898)  can0  004   [8]  CB 9F 95 9F 9C 9F DE 9F
 (2019-02-07 16:16:24.645132)  can0  005   [8]  00 00 00 00 00 00 00 00
 (2019-02-07 16:16:24.645372)  can0  006   [8]  00 00 00 00 00 00 0C 00
 (2019-02-07 16:16:24.649233)  can0  000   [8]  00 00 00 00 00 00 00 00
 (2019-02-07 16:16:24.649464)  can0  001   [7]  00 00 00 00 00 00 00
 (2019-02-07 16:16:24.649634)  can0  002   [4]  00 BC 00 16
 (2019-02-07 16:16:24.686905)  can0  003   [8]  92 9F E3 9F 93 9F 82 9F
 (2019-02-07 16:16:24.687083)  can0  004   [8]  C9 9F 93 9F A1 9F DD 9F
 (2019-02-07 16:16:24.687333)  can0  005   [8]  00 00 00 00 00 00 00 00
 (2019-02-07 16:16:24.687579)  can0  006   [8]  00 00 00 00 00 00 0C 00
 (2019-02-07 16:16:24.691438)  can0  000   [8]  00 00 00 00 00 00 00 00
 (2019-02-07 16:16:24.691669)  can0  001   [7]  00 00 00 00 00 00 00
 (2019-02-07 16:16:24.691841)  can0  002   [4]  00 BC 00 16
 (2019-02-07 16:16:24.729063)  can0  003   [8]  92 9F E5 9F 97 9F 83 9F
 (2019-02-07 16:16:24.729275)  can0  004   [8]  D0 9F 95 9F AB 9F DE 9F
 (2019-02-07 16:16:24.729523)  can0  005   [8]  00 00 00 00 00 00 00 00
 (2019-02-07 16:16:24.729766)  can0  006   [8]  00 00 00 00 00 00 0C 00
 (2019-02-07 16:16:24.733636)  can0  000   [8]  00 00 00 00 00 00 00 00
 (2019-02-07 16:16:24.733864)  can0  001   [7]  00 00 00 00 00 00 00
 (2019-02-07 16:16:24.734034)  can0  002   [4]  00 BC 00 16
 (2019-02-07 16:16:24.771282)  can0  003   [8]  8F 9F E7 9F 89 9F 81 9F
 (2019-02-07 16:16:24.771486)  can0  004   [8]  C9 9F 91 9F A7 9F D7 9F
 (2019-02-07 16:16:24.771731)  can0  005   [8]  00 00 00 00 00 00 00 00
 (2019-02-07 16:16:24.771976)  can0  006   [8]  00 00 00 00 00 00 0C 00
 (2019-02-07 16:16:24.775839)  can0  000   [8]  00 00 00 00 00 00 00 00
 (2019-02-07 16:16:24.776068)  can0  001   [7]  00 00 00 00 00 00 00
 (2019-02-07 16:16:24.776238)  can0  002   [4]  00 BC 00 16
 (2019-02-07 16:16:24.813539)  can0  003   [8]  96 9F E3 9F 93 9F 88 9F
 (2019-02-07 16:16:24.813649)  can0  004   [8]  C9 9F 95 9F A3 9F DD 9F
 (2019-02-07 16:16:24.813948)  can0  005   [8]  00 00 00 00 00 00 00 00
 (2019-02-07 16:16:24.814179)  can0  006   [8]  00 00 00 00 00 00 0C 00
 (2019-02-07 16:16:24.818045)  can0  000   [8]  00 00 00 00 00 00 00 00
 (2019-02-07 16:16:24.818268)  can0  001   [7]  00 00 00 00 00 00 00
 (2019-02-07 16:16:24.818436)  can0  002   [4]  00 BC 00 16
 (2019-02-07 16:16:24.855666)  can0  003   [8]  9A 9F DE 9F 8D 9F 83 9F
 (2019-02-07 16:16:24.855882)  can0  004   [8]  CC 9F 99 9F 9D 9F E5 9F
 (2019-02-07 16:16:24.856131)  can0  005   [8]  00 00 00 00 00 00 00 00
 (2019-02-07 16:16:24.856375)  can0  006   [8]  00 00 00 00 00 00 0C 00
 (2019-02-07 16:16:24.860239)  can0  000   [8]  00 00 00 00 00 00 00 00
 (2019-02-07 16:16:24.860467)  can0  001   [7]  00 00 00 00 00 00 00
 (2019-02-07 16:16:24.860636)  can0  002   [4]  00 BC 00 16
 (2019-02-07 16:16:24.897913)  can0  003   [8]  95 9F E6 9F 91 9F 82 9F
 (2019-02-07 16:16:24.898076)  can0  004   [8]  CB 9F 99 9F A9 9F D5 9F
 (2019-02-07 16:16:24.898345)  can0  005   [8]  00 00 00 00 00 00 00 00
 (2019-02-07 16:16:24.898604)  can0  006   [8]  00 00 00 00 00 00 0C 00
 (2019-02-07 16:16:24.902459)  can0  000   [8]  00 00 00 00 00 00 00 00
 (2019-02-07 16:16:24.902673)  can0  001   [7]  00 00 00 00 00 00 00
 (2019-02-07 16:16:24.902836)  can0  002   [4]  00 BC 00 16
 (2019-02-07 16:16:24.940083)  can0  003   [8]  94 9F E6 9F 8D 9F 86 9F
 (2019-02-07 16:16:24.940280)  can0  004   [8]  CB 9F 91 9F A3 9F D8 9F
 (2019-02-07 16:16:24.940532)  can0  005   [8]  00 00 00 00 00 00 00 00
 (2019-02-07 16:16:24.940783)  can0  006   [8]  00 00 00 00 00 00 0C 00
 (2019-02-07 16:16:24.944641)  can0  000   [8]  00 00 00 00 00 00 00 00
 (2019-02-07 16:16:24.944871)  can0  001   [7]  00 00 00 00 00 00 00
 (2019-02-07 16:16:24.945039)  can0  002   [4]  00 BC 00 16
 (2019-02-07 16:16:24.982277)  can0  003   [8]  98 9F E7 9F 91 9F 80 9F
 (2019-02-07 16:16:24.982481)  can0  004   [8]  C7 9F 96 9F AA 9F DB 9F
 (2019-02-07 16:16:24.982737)  can0  005   [8]  00 00 00 00 00 00 00 00
 (2019-02-07 16:16:24.982979)  can0  006   [8]  00 00 00 00 00 00 0C 00
 (2019-02-07 16:16:24.986842)  can0  000   [8]  00 00 00 00 00 00 00 00
 (2019-02-07 16:16:24.987067)  can0  001   [7]  00 00 00 00 00 00 00
 (2019-02-07 16:16:24.987241)  can0  002   [4]  00 BC 00 16
 (2019-02-07 16:16:25.024514)  can0  003   [8]  98 9F E8 9F 92 9F 80 9F
 (2019-02-07 16:16:25.024689)  can0  004   [8]  C9 9F 91 9F A7 9F DD 9F
 (2019-02-07 16:16:25.024946)  can0  005   [8]  00 00 00 00 00 00 00 00
 (2019-02-07 16:16:25.025188)  can0  006   [8]  00 00 00 00 00 00 0C 00
 (2019-02-07 16:16:25.029070)  can0  000   [8]  00 00 00 00 00 00 00 00
 (2019-02-07 16:16:25.029295)  can0  001   [7]  00 00 00 00 00 00 00
 (2019-02-07 16:16:25.029457)  can0  002   [4]  00 BC 00 16
 (2019-02-07 16:16:25.066780)  can0  003   [8]  9E 9F E8 9F 8E 9F 7E 9F
 (2019-02-07 16:16:25.066900)  can0  004   [8]  CB 9F 93 9F 9E 9F DF 9F
 (2019-02-07 16:16:25.067165)  can0  005   [8]  00 00 00 00 00 00 00 00
 (2019-02-07 16:16:25.067407)  can0  006   [8]  00 00 00 00 00 00 0C 00
 (2019-02-07 16:16:25.071338)  can0  000   [8]  00 00 00 00 00 00 00 00
 (2019-02-07 16:16:25.071447)  can0  001   [7]  00 00 00 00 00 00 00
 (2019-02-07 16:16:25.071652)  can0  002   [4]  00 BC 00 16
 (2019-02-07 16:16:25.108951)  can0  003   [8]  9A 9F E6 9F 8E 9F 80 9F
 (2019-02-07 16:16:25.109055)  can0  004   [8]  D2 9F 91 9F A7 9F DD 9F
 (2019-02-07 16:16:25.109353)  can0  005   [8]  00 00 00 00 00 00 00 00
 (2019-02-07 16:16:25.109593)  can0  006   [8]  00 00 00 00 00 00 0C 00
 (2019-02-07 16:16:25.113479)  can0  000   [8]  00 00 00 00 00 00 00 00
 (2019-02-07 16:16:25.113675)  can0  001   [7]  00 00 00 00 00 00 00
 (2019-02-07 16:16:25.113855)  can0  002   [4]  00 BC 00 16
 (2019-02-07 16:16:25.151132)  can0  003   [8]  9A 9F E6 9F 95 9F 83 9F
 (2019-02-07 16:16:25.151241)  can0  004   [8]  CB 9F 97 9F A5 9F D9 9F
 (2019-02-07 16:16:25.151583)  can0  005   [8]  00 00 00 00 00 00 00 00
 (2019-02-07 16:16:25.151801)  can0  006   [8]  00 00 00 00 00 00 0C 00
 (2019-02-07 16:16:25.155680)  can0  000   [8]  00 00 00 00 00 00 00 00
 (2019-02-07 16:16:25.155859)  can0  001   [7]  00 00 00 00 00 00 00
 (2019-02-07 16:16:25.156033)  can0  002   [4]  00 BC 00 16
 (2019-02-07 16:16:25.193288)  can0  003   [8]  9A 9F E5 9F 91 9F 80 9F
 (2019-02-07 16:16:25.193468)  can0  004   [8]  CC 9F 97 9F A0 9F DF 9F
 (2019-02-07 16:16:25.193720)  can0  005   [8]  00 00 00 00 00 00 00 00
 (2019-02-07 16:16:25.193959)  can0  006   [8]  00 00 00 00 00 00 0C 00
 (2019-02-07 16:16:25.197820)  can0  000   [8]  00 00 00 00 00 00 00 00
 (2019-02-07 16:16:25.198046)  can0  001   [7]  00 00 00 00 00 00 00
 (2019-02-07 16:16:25.198217)  can0  002   [4]  00 BC 00 16
 (2019-02-07 16:16:25.235439)  can0  003   [8]  9B 9F E6 9F 93 9F 82 9F
 (2019-02-07 16:16:25.235664)  can0  004   [8]  C7 9F 95 9F A8 9F DD 9F
 (2019-02-07 16:16:25.235907)  can0  005   [8]  00 00 00 00 00 00 00 00
 (2019-02-07 16:16:25.236156)  can0  006   [8]  00 00 00 00 00 00 0C 00
 (2019-02-07 16:16:25.240019)  can0  000   [8]  00 00 00 00 00 00 00 00
 (2019-02-07 16:16:25.240250)  can0  001   [7]  00 00 00 00 00 00 00
 (2019-02-07 16:16:25.240420)  can0  002   [4]  00 BC 00 16
 (2019-02-07 16:16:25.277644)  can0  003   [8]  9E 9F E5 9F 8A 9F 8A 9F
 (2019-02-07 16:16:25.277856)  can0  004   [8]  CE 9F 98 9F A6 9F DD 9F
 (2019-02-07 16:16:25.278104)  can0  005   [8]  00 00 00 00 00 00 00 00
 (2019-02-07 16:16:25.278360)  can0  006   [8]  00 00 00 00 00 00 0C 00
 (2019-02-07 16:16:25.282225)  can0  000   [8]  00 00 00 00 00 00 00 00
 (2019-02-07 16:16:25.282449)  can0  001   [7]  00 00 00 00 00 00 00
 (2019-02-07 16:16:25.282628)  can0  002   [4]  00 BC 00 16
 (2019-02-07 16:16:25.319940)  can0  003   [8]  9A 9F E3 9F 92 9F 82 9F
 (2019-02-07 16:16:25.320029)  can0  004   [8]  CB 9F 91 9F A2 9F E1 9F
 (2019-02-07 16:16:25.320347)  can0  005   [8]  00 00 00 00 00 00 00 00
 (2019-02-07 16:16:25.320588)  can0  006   [8]  00 00 00 00 00 00 0C 00
 (2019-02-07 16:16:25.324574)  can0  000   [8]  00 00 00 00 00 00 00 00
 (2019-02-07 16:16:25.324673)  can0  001   [7]  00 00 00 00 00 00 00
 (2019-02-07 16:16:25.324883)  can0  002   [4]  00 BC 00 16
 (2019-02-07 16:16:25.362231)  can0  003   [8]  9F 9F E2 9F 8E 9F 85 9F
 (2019-02-07 16:16:25.362330)  can0  004   [8]  C3 9F 93 9F A6 9F D7 9F
 (2019-02-07 16:16:25.362560)  can0  005   [8]  00 00 00 00 00 00 00 00
 (2019-02-07 16:16:25.362827)  can0  006   [8]  00 00 00 00 00 00 0C 00
 (2019-02-07 16:16:25.366738)  can0  000   [8]  00 00 00 00 00 00 00 00
 (2019-02-07 16:16:25.366841)  can0  001   [7]  00 00 00 00 00 00 00
 (2019-02-07 16:16:25.367069)  can0  002   [4]  00 BC 00 16
 (2019-02-07 16:16:25.404329)  can0  003   [8]  9E 9F E6 9F 93 9F 82 9F
 (2019-02-07 16:16:25.404477)  can0  004   [8]  CD 9F 95 9F 9B 9F E3 9F
 (2019-02-07 16:16:25.404758)  can0  005   [8]  00 00 00 00 00 00 00 00
 (2019-02-07 16:16:25.404989)  can0  006   [8]  00 00 00 00 00 00 0C 00
 (2019-02-07 16:16:25.408915)  can0  000   [8]  00 00 00 00 00 00 00 00
 (2019-02-07 16:16:25.409078)  can0  001   [7]  00 00 00 00 00 00 00
 (2019-02-07 16:16:25.409232)  can0  002   [4]  00 BC 00 16
 (2019-02-07 16:16:25.446553)  can0  003   [8]  A0 9F E8 9F 8E 9F 84 9F
 (2019-02-07 16:16:25.446651)  can0  004   [8]  CF 9F 93 9F AC 9F DF 9F
 (2019-02-07 16:16:25.446947)  can0  005   [8]  00 00 00 00 00 00 00 00
 (2019-02-07 16:16:25.447200)  can0  006   [8]  00 00 00 00 00 00 0C 00
 (2019-02-07 16:16:25.451119)  can0  000   [8]  00 00 00 00 00 00 00 00
 (2019-02-07 16:16:25.451287)  can0  001   [7]  00 00 00 00 00 00 00
 (2019-02-07 16:16:25.451457)  can0  002   [4]  00 BC 00 16
 (2019-02-07 16:16:25.488760)  can0  003   [8]  A4 9F E3 9F 90 9F 88 9F
 (2019-02-07 16:16:25.488866)  can0  004   [8]  CB 9F 97 9F A3 9F D9 9F
 (2019-02-07 16:16:25.489150)  can0  005   [8]  00 00 00 00 00 00 00 00
 (2019-02-07 16:16:25.489374)  can0  006   [8]  00 00 00 00 00 00 0C 00
 (2019-02-07 16:16:25.493328)  can0  000   [8]  00 00 00 00 00 00 00 00
 (2019-02-07 16:16:25.493537)  can0  001   [7]  00 00 00 00 00 00 00
 (2019-02-07 16:16:25.493602)  can0  002   [4]  00 BC 00 16
 (2019-02-07 16:16:25.530959)  can0  003   [8]  A2 9F E9 9F 95 9F 7E 9F
 (2019-02-07 16:16:25.531061)  can0  004   [8]  C9 9F 95 9F AA 9F DE 9F
 (2019-02-07 16:16:25.531355)  can0  005   [8]  00 00 00 00 00 00 00 00
 (2019-02-07 16:16:25.531589)  can0  006   [8]  00 00 00 00 00 00 0C 00
 (2019-02-07 16:16:25.535502)  can0  000   [8]  00 00 00 00 00 00 00 00
 (2019-02-07 16:16:25.535661)  can0  001   [7]  00 00 00 00 00 00 00
 (2019-02-07 16:16:25.535847)  can0  002   [4]  00 BC 00 16
 (2019-02-07 16:16:25.573144)  can0  003   [8]  A2 9F E6 9F 8F 9F 84 9F
 (2019-02-07 16:16:25.573302)  can0  004   [8]  CE 9F 8F 9F A4 9F DF 9F
 (2019-02-07 16:16:25.573544)  can0  005   [8]  00 00 00 00 00 00 00 00
 (2019-02-07 16:16:25.573786)  can0  006   [8]  00 00 00 00 00 00 0C 00
 (2019-02-07 16:16:25.577721)  can0  000   [8]  00 00 00 00 00 00 00 00
 (2019-02-07 16:16:25.577873)  can0  001   [7]  00 00 00 00 00 00 00
 (2019-02-07 16:16:25.578050)  can0  002   [4]  00 BC 00 16
 (2019-02-07 16:16:25.615361)  can0  003   [8]  A2 9F E6 9F 90 9F 82 9F
 (2019-02-07 16:16:25.615463)  can0  004   [8]  C9 9F 99 9F A5 9F E4 9F
 (2019-02-07 16:16:25.615762)  can0  005   [8]  00 00 00 00 00 00 00 00
 (2019-02-07 16:16:25.615992)  can0  006   [8]  00 00 00 00 00 00 0C 00
 (2019-02-07 16:16:25.619909)  can0  000   [8]  00 00 00 00 00 00 00 00
 (2019-02-07 16:16:25.620068)  can0  001   [7]  00 00 00 00 00 00 00
 (2019-02-07 16:16:25.620240)  can0  002   [4]  00 BC 00 16
 (2019-02-07 16:16:25.657559)  can0  003   [8]  A4 9F EA 9F 94 9F 83 9F
 (2019-02-07 16:16:25.657652)  can0  004   [8]  C8 9F 93 9F 9E 9F DE 9F
 (2019-02-07 16:16:25.657948)  can0  005   [8]  00 00 00 00 00 00 00 00
 (2019-02-07 16:16:25.658177)  can0  006   [8]  00 00 00 00 00 00 0C 00
 (2019-02-07 16:16:25.662185)  can0  000   [8]  00 00 00 00 00 00 00 00
 (2019-02-07 16:16:25.662282)  can0  001   [7]  00 00 00 00 00 00 00
 (2019-02-07 16:16:25.662453)  can0  002   [4]  00 BC 00 16
 (2019-02-07 16:16:25.699753)  can0  003   [8]  A7 9F E8 9F 91 9F 82 9F
 (2019-02-07 16:16:25.699858)  can0  004   [8]  CD 9F 97 9F A7 9F E3 9F
 (2019-02-07 16:16:25.700140)  can0  005   [8]  00 00 00 00 00 00 00 00
 (2019-02-07 16:16:25.700372)  can0  006   [8]  00 00 00 00 00 00 0C 00
 (2019-02-07 16:16:25.704338)  can0  000   [8]  00 00 00 00 00 00 00 00
 (2019-02-07 16:16:25.704438)  can0  001   [7]  00 00 00 00 00 00 00
 (2019-02-07 16:16:25.704646)  can0  002   [4]  00 BC 00 16
 (2019-02-07 16:16:25.741970)  can0  003   [8]  A0 9F E4 9F 8F 9F 7F 9F
 (2019-02-07 16:16:25.742069)  can0  004   [8]  CD 9F 91 9F A3 9F E1 9F
 (2019-02-07 16:16:25.742353)  can0  005   [8]  00 00 00 00 00 00 00 00
 (2019-02-07 16:16:25.742584)  can0  006   [8]  00 00 00 00 00 00 0C 00
 (2019-02-07 16:16:25.746506)  can0  000   [8]  00 00 00 00 00 00 00 00
 (2019-02-07 16:16:25.746673)  can0  001   [7]  00 00 00 00 00 00 00
 (2019-02-07 16:16:25.746848)  can0  002   [4]  00 BC 00 16
 (2019-02-07 16:16:25.784136)  can0  003   [8]  AC 9F E7 9F 8F 9F 80 9F
 (2019-02-07 16:16:25.784300)  can0  004   [8]  C6 9F 94 9F A9 9F D9 9F
 (2019-02-07 16:16:25.784550)  can0  005   [8]  00 00 00 00 00 00 00 00
 (2019-02-07 16:16:25.784809)  can0  006   [8]  00 00 00 00 00 00 0C 00
 (2019-02-07 16:16:25.788780)  can0  000   [8]  00 00 00 00 00 00 00 00
 (2019-02-07 16:16:25.788895)  can0  001   [7]  00 00 00 00 00 00 00
 (2019-02-07 16:16:25.789054)  can0  002   [4]  00 BC 00 16
 (2019-02-07 16:16:25.826350)  can0  003   [8]  A5 9F E7 9F 92 9F 84 9F
 (2019-02-07 16:16:25.826451)  can0  004   [8]  CA 9F 96 9F A3 9F DF 9F
 (2019-02-07 16:16:25.826763)  can0  005   [8]  00 00 00 00 00 00 00 00
 (2019-02-07 16:16:25.826985)  can0  006   [8]  00 00 00 00 00 00 0C 00
 (2019-02-07 16:16:25.830957)  can0  000   [8]  00 00 00 00 00 00 00 00
 (2019-02-07 16:16:25.831048)  can0  001   [7]  00 00 00 00 00 00 00
 (2019-02-07 16:16:25.831253)  can0  002   [4]  00 BC 00 16
 (2019-02-07 16:16:25.868551)  can0  003   [8]  AC 9F E6 9F 8C 9F 7C 9F
 (2019-02-07 16:16:25.868707)  can0  004   [8]  C9 9F 97 9F A7 9F D6 9F
 (2019-02-07 16:16:25.868950)  can0  005   [8]  00 00 00 00 00 00 00 00
 (2019-02-07 16:16:25.869190)  can0  006   [8]  00 00 00 00 00 00 0C 00
 (2019-02-07 16:16:25.873144)  can0  000   [8]  00 00 00 00 00 00 00 00
 (2019-02-07 16:16:25.873241)  can0  001   [7]  00 00 00 00 00 00 00
 (2019-02-07 16:16:25.873470)  can0  002   [4]  00 BC 00 16
 (2019-02-07 16:16:25.910720)  can0  003   [8]  A8 9F E8 9F 93 9F 8C 9F
 (2019-02-07 16:16:25.910909)  can0  004   [8]  D1 9F 93 9F A7 9F E4 9F
 (2019-02-07 16:16:25.911143)  can0  005   [8]  00 00 00 00 00 00 00 00
 (2019-02-07 16:16:25.911376)  can0  006   [8]  00 00 00 00 00 00 0C 00
 (2019-02-07 16:16:25.915240)  can0  000   [8]  00 00 00 00 00 00 00 00
 (2019-02-07 16:16:25.915469)  can0  001   [7]  00 00 00 00 00 00 00
 (2019-02-07 16:16:25.915639)  can0  002   [4]  00 BC 00 16
 (2019-02-07 16:16:25.952863)  can0  003   [8]  A4 9F E3 9F 8E 9F 82 9F
 (2019-02-07 16:16:25.953083)  can0  004   [8]  CA 9F 93 9F A5 9F DB 9F
 (2019-02-07 16:16:25.953328)  can0  005   [8]  00 00 00 00 00 00 00 00
 (2019-02-07 16:16:25.953577)  can0  006   [8]  00 00 00 00 00 00 0C 00
 (2019-02-07 16:16:25.957445)  can0  000   [8]  00 00 00 00 00 00 00 00
 (2019-02-07 16:16:25.957673)  can0  001   [7]  00 00 00 00 00 00 00
 (2019-02-07 16:16:25.957848)  can0  002   [4]  00 BC 00 16
 (2019-02-07 16:16:25.995051)  can0  003   [8]  AB 9F E7 9F 96 9F 8A 9F
 (2019-02-07 16:16:25.995276)  can0  004   [8]  CE 9F 95 9F A4 9F E4 9F
 (2019-02-07 16:16:25.995525)  can0  005   [8]  00 00 00 00 00 00 00 00
 (2019-02-07 16:16:25.995775)  can0  006   [8]  00 00 00 00 00 00 0C 00
 (2019-02-07 16:16:25.999645)  can0  000   [8]  00 00 00 00 00 00 00 00
 (2019-02-07 16:16:25.999877)  can0  001   [7]  00 00 00 00 00 00 00
 (2019-02-07 16:16:26.000139)  can0  002   [4]  00 BC 00 16
 (2019-02-07 16:16:26.037297)  can0  003   [8]  B0 9F E2 9F 8C 9F 84 9F
 (2019-02-07 16:16:26.037492)  can0  004   [8]  D1 9F 95 9F A5 9F DD 9F
 (2019-02-07 16:16:26.037740)  can0  005   [8]  00 00 00 00 00 00 00 00
 (2019-02-07 16:16:26.037986)  can0  006   [8]  00 00 00 00 00 00 0C 00
 (2019-02-07 16:16:26.041851)  can0  000   [8]  00 00 00 00 00 00 00 00
 (2019-02-07 16:16:26.042077)  can0  001   [7]  00 00 00 00 00 00 00
 (2019-02-07 16:16:26.042256)  can0  002   [4]  00 BC 00 16
 (2019-02-07 16:16:26.079522)  can0  003   [8]  A6 9F E2 9F 93 9F 84 9F
 (2019-02-07 16:16:26.079714)  can0  004   [8]  CD 9F 97 9F A7 9F E0 9F
 (2019-02-07 16:16:26.079954)  can0  005   [8]  00 00 00 00 00 00 00 00
 (2019-02-07 16:16:26.080191)  can0  006   [8]  00 00 00 00 00 00 0C 00
 (2019-02-07 16:16:26.084054)  can0  000   [8]  00 00 00 00 00 00 00 00
 (2019-02-07 16:16:26.084286)  can0  001   [7]  00 00 00 00 00 00 00
 (2019-02-07 16:16:26.084453)  can0  002   [4]  00 BC 00 16
 (2019-02-07 16:16:26.121678)  can0  003   [8]  A8 9F E2 9F 93 9F 82 9F
 (2019-02-07 16:16:26.121895)  can0  004   [8]  CC 9F 95 9F A6 9F E1 9F
 (2019-02-07 16:16:26.122176)  can0  005   [8]  00 00 00 00 00 00 00 00
 (2019-02-07 16:16:26.122384)  can0  006   [8]  00 00 00 00 00 00 0C 00
 (2019-02-07 16:16:26.126251)  can0  000   [8]  00 00 00 00 00 00 00 00
 (2019-02-07 16:16:26.126478)  can0  001   [7]  00 00 00 00 00 00 00
 (2019-02-07 16:16:26.126650)  can0  002   [4]  00 BC 00 16
 (2019-02-07 16:16:26.163862)  can0  003   [8]  A6 9F E1 9F 90 9F 80 9F
 (2019-02-07 16:16:26.164088)  can0  004   [8]  CB 9F 93 9F 9E 9F E1 9F
 (2019-02-07 16:16:26.164336)  can0  005   [8]  00 00 00 00 00 00 00 00
 (2019-02-07 16:16:26.164583)  can0  006   [8]  00 00 00 00 00 00 0C 00
 (2019-02-07 16:16:26.168450)  can0  000   [8]  00 00 00 00 00 00 00 00
 (2019-02-07 16:16:26.168680)  can0  001   [7]  00 00 00 00 00 00 00
 (2019-02-07 16:16:26.168853)  can0  002   [4]  00 BC 00 16
 (2019-02-07 16:16:26.206108)  can0  003   [8]  B4 9F E4 9F 93 9F 83 9F
 (2019-02-07 16:16:26.206299)  can0  004   [8]  CE 9F 95 9F A3 9F DB 9F
 (2019-02-07 16:16:26.206548)  can0  005   [8]  00 00 00 00 00 00 00 00
 (2019-02-07 16:16:26.206790)  can0  006   [8]  00 00 00 00 00 00 0C 00
 (2019-02-07 16:16:26.210651)  can0  000   [8]  00 00 00 00 00 00 00 00
 (2019-02-07 16:16:26.210877)  can0  001   [7]  00 00 00 00 00 00 00
 (2019-02-07 16:16:26.211051)  can0  002   [4]  00 BC 00 16
 (2019-02-07 16:16:26.248353)  can0  003   [8]  AD 9F EC 9F 96 9F 83 9F
 (2019-02-07 16:16:26.248500)  can0  004   [8]  CB 9F 92 9F A3 9F E2 9F
 (2019-02-07 16:16:26.248792)  can0  005   [8]  00 00 00 00 00 00 00 00
 (2019-02-07 16:16:26.248994)  can0  006   [8]  00 00 00 00 00 00 0C 00
 (2019-02-07 16:16:26.252879)  can0  000   [8]  00 00 00 00 00 00 00 00
 (2019-02-07 16:16:26.253090)  can0  001   [7]  00 00 00 00 00 00 00
 (2019-02-07 16:16:26.253256)  can0  002   [4]  00 BC 00 16
 (2019-02-07 16:16:26.290521)  can0  003   [8]  AC 9F E2 9F 8F 9F 80 9F
 (2019-02-07 16:16:26.290713)  can0  004   [8]  CD 9F 9B 9F A4 9F E1 9F
 (2019-02-07 16:16:26.290955)  can0  005   [8]  00 00 00 00 00 00 00 00
 (2019-02-07 16:16:26.291190)  can0  006   [8]  00 00 00 00 00 00 0C 00
 (2019-02-07 16:16:26.295056)  can0  000   [8]  00 00 00 00 00 00 00 00
 (2019-02-07 16:16:26.295281)  can0  001   [7]  00 00 00 00 00 00 00
 (2019-02-07 16:16:26.295454)  can0  002   [4]  00 BC 00 16
 (2019-02-07 16:16:26.332715)  can0  003   [8]  B2 9F E4 9F 92 9F 86 9F
 (2019-02-07 16:16:26.332896)  can0  004   [8]  CD 9F 92 9F A4 9F E0 9F
 (2019-02-07 16:16:26.333153)  can0  005   [8]  00 00 00 00 00 00 00 00
 (2019-02-07 16:16:26.333390)  can0  006   [8]  00 00 00 00 00 00 0C 00
 (2019-02-07 16:16:26.337263)  can0  000   [8]  00 00 00 00 00 00 00 00
 (2019-02-07 16:16:26.337486)  can0  001   [7]  00 00 00 00 00 00 00
 (2019-02-07 16:16:26.337655)  can0  002   [4]  00 BC 00 16
 (2019-02-07 16:16:26.374904)  can0  003   [8]  AE 9F E4 9F 8E 9F 86 9F
 (2019-02-07 16:16:26.375099)  can0  004   [8]  CE 9F 93 9F A7 9F DD 9F
 (2019-02-07 16:16:26.375343)  can0  005   [8]  00 00 00 00 00 00 00 00
 (2019-02-07 16:16:26.375586)  can0  006   [8]  00 00 00 00 00 00 0C 00
 (2019-02-07 16:16:26.379457)  can0  000   [8]  00 00 00 00 00 00 00 00
 (2019-02-07 16:16:26.379686)  can0  001   [7]  00 00 00 00 00 00 00
 (2019-02-07 16:16:26.379857)  can0  002   [4]  00 BC 00 16
 (2019-02-07 16:16:26.417068)  can0  003   [8]  AE 9F EC 9F 97 9F 8C 9F
 (2019-02-07 16:16:26.417292)  can0  004   [8]  C5 9F 91 9F A1 9F DD 9F
 (2019-02-07 16:16:26.417538)  can0  005   [8]  00 00 00 00 00 00 00 00
 (2019-02-07 16:16:26.417789)  can0  006   [8]  00 00 00 00 00 00 0C 00
 (2019-02-07 16:16:26.421657)  can0  000   [8]  00 00 00 00 00 00 00 00
 (2019-02-07 16:16:26.421884)  can0  001   [7]  00 00 00 00 00 00 00
 (2019-02-07 16:16:26.422057)  can0  002   [4]  00 BC 00 16
 (2019-02-07 16:16:26.459280)  can0  003   [8]  B2 9F E4 9F 93 9F 84 9F
 (2019-02-07 16:16:26.459503)  can0  004   [8]  C7 9F 95 9F A5 9F DF 9F
 (2019-02-07 16:16:26.459747)  can0  005   [8]  00 00 00 00 00 00 00 00
 (2019-02-07 16:16:26.459988)  can0  006   [8]  00 00 00 00 00 00 0C 00
 (2019-02-07 16:16:26.463862)  can0  000   [8]  00 00 00 00 00 00 00 00
 (2019-02-07 16:16:26.464088)  can0  001   [7]  00 00 00 00 00 00 00
 (2019-02-07 16:16:26.464257)  can0  002   [4]  00 BC 00 16
 (2019-02-07 16:16:26.501542)  can0  003   [8]  AE 9F DE 9F 91 9F 82 9F
 (2019-02-07 16:16:26.501737)  can0  004   [8]  C3 9F 91 9F 9D 9F DB 9F
 (2019-02-07 16:16:26.501957)  can0  005   [8]  00 00 00 00 00 00 00 00
 (2019-02-07 16:16:26.502222)  can0  006   [8]  00 00 00 00 00 00 0C 00
 (2019-02-07 16:16:26.506130)  can0  000   [8]  00 00 00 00 00 00 00 00
 (2019-02-07 16:16:26.506297)  can0  001   [7]  00 00 00 00 00 00 00
 (2019-02-07 16:16:26.506458)  can0  002   [4]  00 BC 00 16
 (2019-02-07 16:16:26.543743)  can0  003   [8]  B0 9F E4 9F 95 9F 87 9F
 (2019-02-07 16:16:26.543893)  can0  004   [8]  BD 9F 93 9F A5 9F DA 9F
 (2019-02-07 16:16:26.544156)  can0  005   [8]  00 00 00 00 00 00 00 00
 (2019-02-07 16:16:26.544407)  can0  006   [8]  00 00 00 00 00 00 0C 00
 (2019-02-07 16:16:26.548274)  can0  000   [8]  00 00 00 00 00 00 00 00
 (2019-02-07 16:16:26.548491)  can0  001   [7]  00 00 00 00 00 00 00
 (2019-02-07 16:16:26.548661)  can0  002   [4]  00 BC 00 16
 (2019-02-07 16:16:26.585934)  can0  003   [8]  B2 9F E5 9F 93 9F 86 9F
 (2019-02-07 16:16:26.586114)  can0  004   [8]  CF 9F 98 9F A7 9F DD 9F
 (2019-02-07 16:16:26.586370)  can0  005   [8]  00 00 00 00 00 00 00 00
 (2019-02-07 16:16:26.586627)  can0  006   [8]  00 00 00 00 00 00 0C 00
 (2019-02-07 16:16:26.590497)  can0  000   [8]  00 00 00 00 00 00 00 00
 (2019-02-07 16:16:26.590714)  can0  001   [7]  00 00 00 00 00 00 00
 (2019-02-07 16:16:26.590878)  can0  002   [4]  00 BC 00 16
 (2019-02-07 16:16:26.628174)  can0  003   [8]  B2 9F E7 9F 8F 9F 84 9F
 (2019-02-07 16:16:26.628274)  can0  004   [8]  CC 9F 96 9F A5 9F E0 9F
 (2019-02-07 16:16:26.628579)  can0  005   [8]  00 00 00 00 00 00 00 00
 (2019-02-07 16:16:26.628820)  can0  006   [8]  00 00 00 00 00 00 0C 00
 (2019-02-07 16:16:26.632710)  can0  000   [8]  00 00 00 00 00 00 00 00
 (2019-02-07 16:16:26.632922)  can0  001   [7]  00 00 00 00 00 00 00
 (2019-02-07 16:16:26.633075)  can0  002   [4]  00 BC 00 16
 (2019-02-07 16:16:26.670311)  can0  003   [8]  AC 9F E7 9F 93 9F 89 9F
 (2019-02-07 16:16:26.670546)  can0  004   [8]  D3 9F 93 9F A1 9F DF 9F
 (2019-02-07 16:16:26.670780)  can0  005   [8]  00 00 00 00 00 00 00 00
 (2019-02-07 16:16:26.671019)  can0  006   [8]  00 00 00 00 00 00 0C 00
 (2019-02-07 16:16:26.674922)  can0  000   [8]  00 00 00 00 00 00 00 00
 (2019-02-07 16:16:26.675119)  can0  001   [7]  00 00 00 00 00 00 00
 (2019-02-07 16:16:26.675280)  can0  002   [4]  00 BC 00 16
 (2019-02-07 16:16:26.712523)  can0  003   [8]  B2 9F E0 9F 8F 9F 86 9F
 (2019-02-07 16:16:26.712726)  can0  004   [8]  CF 9F 95 9F A1 9F E5 9F
 (2019-02-07 16:16:26.712977)  can0  005   [8]  00 00 00 00 00 00 00 00
 (2019-02-07 16:16:26.713227)  can0  006   [8]  00 00 00 00 00 00 0C 00
 (2019-02-07 16:16:26.717091)  can0  000   [8]  00 00 00 00 00 00 00 00
 (2019-02-07 16:16:26.717308)  can0  001   [7]  00 00 00 00 00 00 00
 (2019-02-07 16:16:26.717490)  can0  002   [4]  00 BC 00 16
 (2019-02-07 16:16:26.754703)  can0  003   [8]  B7 9F E2 9F 8D 9F 86 9F
 (2019-02-07 16:16:26.754922)  can0  004   [8]  CB 9F 99 9F A7 9F DB 9F
 (2019-02-07 16:16:26.755166)  can0  005   [8]  00 00 00 00 00 00 00 00
 (2019-02-07 16:16:26.755415)  can0  006   [8]  00 00 00 00 00 00 0C 00
 (2019-02-07 16:16:26.759289)  can0  000   [8]  00 00 00 00 00 00 00 00
 (2019-02-07 16:16:26.759511)  can0  001   [7]  00 00 00 00 00 00 00
 (2019-02-07 16:16:26.759680)  can0  002   [4]  00 BC 00 16
 (2019-02-07 16:16:26.796926)  can0  003   [8]  B2 9F EB 9F 92 9F 7E 9F
 (2019-02-07 16:16:26.797118)  can0  004   [8]  CB 9F 91 9F 9C 9F E6 9F
 (2019-02-07 16:16:26.797375)  can0  005   [8]  00 00 00 00 00 00 00 00
 (2019-02-07 16:16:26.797621)  can0  006   [8]  00 00 00 00 00 00 0C 00
 (2019-02-07 16:16:26.801497)  can0  000   [8]  00 00 00 00 00 00 00 00
 (2019-02-07 16:16:26.801711)  can0  001   [7]  00 00 00 00 00 00 00
 (2019-02-07 16:16:26.801882)  can0  002   [4]  00 BC 00 16
 (2019-02-07 16:16:26.839113)  can0  003   [8]  B6 9F E5 9F 92 9F 86 9F
 (2019-02-07 16:16:26.839344)  can0  004   [8]  CB 9F 93 9F 9E 9F E3 9F
 (2019-02-07 16:16:26.839567)  can0  005   [8]  00 00 00 00 00 00 00 00
 (2019-02-07 16:16:26.839821)  can0  006   [8]  00 00 00 00 00 00 0C 00
 (2019-02-07 16:16:26.843698)  can0  000   [8]  00 00 00 00 00 00 00 00
 (2019-02-07 16:16:26.843913)  can0  001   [7]  00 00 00 00 00 00 00
 (2019-02-07 16:16:26.844083)  can0  002   [4]  00 BC 00 16
 (2019-02-07 16:16:26.881316)  can0  003   [8]  AE 9F E0 9F 94 9F 81 9F
 (2019-02-07 16:16:26.881535)  can0  004   [8]  CC 9F 95 9F A5 9F E4 9F
 (2019-02-07 16:16:26.881774)  can0  005   [8]  00 00 00 00 00 00 00 00
 (2019-02-07 16:16:26.882034)  can0  006   [8]  00 00 00 00 00 00 0C 00
 (2019-02-07 16:16:26.885922)  can0  000   [8]  00 00 00 00 00 00 00 00
 (2019-02-07 16:16:26.886132)  can0  001   [7]  00 00 00 00 00 00 00
 (2019-02-07 16:16:26.886281)  can0  002   [4]  00 BC 00 16
 (2019-02-07 16:16:26.923526)  can0  003   [8]  B4 9F E1 9F 91 9F 7E 9F
 (2019-02-07 16:16:26.923719)  can0  004   [8]  CB 9F 95 9F AB 9F DF 9F
 (2019-02-07 16:16:26.923974)  can0  005   [8]  00 00 00 00 00 00 00 00
 (2019-02-07 16:16:26.924224)  can0  006   [8]  00 00 00 00 00 00 0C 00
 (2019-02-07 16:16:26.928096)  can0  000   [8]  00 00 00 00 00 00 00 00
 (2019-02-07 16:16:26.928315)  can0  001   [7]  00 00 00 00 00 00 00
 (2019-02-07 16:16:26.928484)  can0  002   [4]  00 BC 00 16
 (2019-02-07 16:16:26.965713)  can0  003   [8]  B2 9F E3 9F 8E 9F 80 9F
 (2019-02-07 16:16:26.965934)  can0  004   [8]  C5 9F 96 9F 9F 9F E0 9F
 (2019-02-07 16:16:26.966178)  can0  005   [8]  00 00 00 00 00 00 00 00
 (2019-02-07 16:16:26.966425)  can0  006   [8]  00 00 00 00 00 00 0C 00
 (2019-02-07 16:16:26.970288)  can0  000   [8]  00 00 00 00 00 00 00 00
 (2019-02-07 16:16:26.970510)  can0  001   [7]  00 00 00 00 00 00 00
 (2019-02-07 16:16:26.970682)  can0  002   [4]  00 BC 00 16
 (2019-02-07 16:16:27.007918)  can0  003   [8]  B4 9F EA 9F 93 9F 84 9F
 (2019-02-07 16:16:27.008143)  can0  004   [8]  CB 9F 91 9F 9F 9F DD 9F
 (2019-02-07 16:16:27.008373)  can0  005   [8]  00 00 00 00 00 00 00 00
 (2019-02-07 16:16:27.008623)  can0  006   [8]  00 00 00 00 00 00 0C 00
 (2019-02-07 16:16:27.012495)  can0  000   [8]  00 00 00 00 00 00 00 00
 (2019-02-07 16:16:27.012716)  can0  001   [7]  00 00 00 00 00 00 00
 (2019-02-07 16:16:27.012908)  can0  002   [4]  00 BC 00 16
 (2019-02-07 16:16:27.050250)  can0  003   [8]  B6 9F E6 9F 92 9F 80 9F
 (2019-02-07 16:16:27.050370)  can0  004   [8]  CC 9F 91 9F A6 9F E5 9F
 (2019-02-07 16:16:27.050625)  can0  005   [8]  00 00 00 00 00 00 00 00
 (2019-02-07 16:16:27.050884)  can0  006   [8]  00 00 00 00 00 00 0C 00
 (2019-02-07 16:16:27.054917)  can0  000   [8]  00 00 00 00 00 00 00 00
 (2019-02-07 16:16:27.055062)  can0  001   [7]  00 00 00 00 00 00 00
 (2019-02-07 16:16:27.055129)  can0  002   [4]  00 BC 00 16
 (2019-02-07 16:16:27.092378)  can0  003   [8]  B7 9F E6 9F 91 9F 7F 9F
 (2019-02-07 16:16:27.092482)  can0  004   [8]  C8 9F 8D 9F A1 9F E3 9F
 (2019-02-07 16:16:27.092804)  can0  005   [8]  00 00 00 00 00 00 00 00
 (2019-02-07 16:16:27.093023)  can0  006   [8]  00 00 00 00 00 00 0C 00
 (2019-02-07 16:16:27.096925)  can0  000   [8]  00 00 00 00 00 00 00 00
 (2019-02-07 16:16:27.097117)  can0  001   [7]  00 00 00 00 00 00 00
 (2019-02-07 16:16:27.097283)  can0  002   [4]  00 BC 00 16
 (2019-02-07 16:16:27.134521)  can0  003   [8]  B8 9F E7 9F 99 9F 86 9F
 (2019-02-07 16:16:27.134707)  can0  004   [8]  C9 9F 95 9F AA 9F E1 9F
 (2019-02-07 16:16:27.134976)  can0  005   [8]  00 00 00 00 00 00 00 00
 (2019-02-07 16:16:27.135213)  can0  006   [8]  00 00 00 00 00 00 0C 00
 (2019-02-07 16:16:27.139093)  can0  000   [8]  00 00 00 00 00 00 00 00
 (2019-02-07 16:16:27.139308)  can0  001   [7]  00 00 00 00 00 00 00
 (2019-02-07 16:16:27.139473)  can0  002   [4]  00 BC 00 16
 (2019-02-07 16:16:27.176778)  can0  003   [8]  BC 9F E7 9F 90 9F 81 9F
 (2019-02-07 16:16:27.176926)  can0  004   [8]  CB 9F 93 9F 9F 9F E7 9F
 (2019-02-07 16:16:27.177168)  can0  005   [8]  00 00 00 00 00 00 00 00
 (2019-02-07 16:16:27.177417)  can0  006   [8]  00 00 00 00 00 00 0C 00
 (2019-02-07 16:16:27.181294)  can0  000   [8]  00 00 00 00 00 00 00 00
 (2019-02-07 16:16:27.181503)  can0  001   [7]  00 00 00 00 00 00 00
 (2019-02-07 16:16:27.181670)  can0  002   [4]  00 BC 00 16
 (2019-02-07 16:16:27.218894)  can0  003   [8]  B6 9F E2 9F 93 9F 84 9F
 (2019-02-07 16:16:27.219104)  can0  004   [8]  D0 9F 95 9F A2 9F DF 9F
 (2019-02-07 16:16:27.219365)  can0  005   [8]  00 00 00 00 00 00 00 00
 (2019-02-07 16:16:27.219603)  can0  006   [8]  00 00 00 00 00 00 0C 00
 (2019-02-07 16:16:27.223580)  can0  000   [8]  00 00 00 00 00 00 00 00
 (2019-02-07 16:16:27.223739)  can0  001   [7]  00 00 00 00 00 00 00
 (2019-02-07 16:16:27.223940)  can0  002   [4]  00 BC 00 16
 (2019-02-07 16:16:27.261176)  can0  003   [8]  B2 9F E8 9F 96 9F 84 9F
 (2019-02-07 16:16:27.261324)  can0  004   [8]  CE 9F 93 9F A7 9F DA 9F
 (2019-02-07 16:16:27.261564)  can0  005   [8]  00 00 00 00 00 00 00 00
 (2019-02-07 16:16:27.261814)  can0  006   [8]  00 00 00 00 00 00 0C 00
 (2019-02-07 16:16:27.265697)  can0  000   [8]  00 00 00 00 00 00 00 00
 (2019-02-07 16:16:27.265903)  can0  001   [7]  00 00 00 00 00 00 00
 (2019-02-07 16:16:27.266075)  can0  002   [4]  00 BC 00 16
 (2019-02-07 16:16:27.303371)  can0  003   [8]  B2 9F E2 9F 8E 9F 84 9F
 (2019-02-07 16:16:27.303524)  can0  004   [8]  C3 9F 93 9F A5 9F DC 9F
 (2019-02-07 16:16:27.303786)  can0  005   [8]  00 00 00 00 00 00 00 00
 (2019-02-07 16:16:27.304049)  can0  006   [8]  00 00 00 00 00 00 0C 00
 (2019-02-07 16:16:27.307953)  can0  000   [8]  00 00 00 00 00 00 00 00
 (2019-02-07 16:16:27.308104)  can0  001   [7]  00 00 00 00 00 00 00
 (2019-02-07 16:16:27.308319)  can0  002   [4]  00 BC 00 16
 (2019-02-07 16:16:27.345511)  can0  003   [8]  B9 9F E9 9F 95 9F 82 9F
 (2019-02-07 16:16:27.345717)  can0  004   [8]  CC 9F 8F 9F A2 9F E0 9F
 (2019-02-07 16:16:27.345969)  can0  005   [8]  00 00 00 00 00 00 00 00
 (2019-02-07 16:16:27.346225)  can0  006   [8]  00 00 00 00 00 00 0C 00
 (2019-02-07 16:16:27.350099)  can0  000   [8]  00 00 00 00 00 00 00 00
 (2019-02-07 16:16:27.350303)  can0  001   [7]  00 00 00 00 00 00 00
 (2019-02-07 16:16:27.350480)  can0  002   [4]  00 BC 00 16
 (2019-02-07 16:16:27.387685)  can0  003   [8]  B7 9F E0 9F 96 9F 84 9F
 (2019-02-07 16:16:27.387917)  can0  004   [8]  D3 9F 96 9F A6 9F DB 9F
 (2019-02-07 16:16:27.388159)  can0  005   [8]  00 00 00 00 00 00 00 00
 (2019-02-07 16:16:27.388407)  can0  006   [8]  00 00 00 00 00 00 0C 00
 (2019-02-07 16:16:27.392273)  can0  000   [8]  00 00 00 00 00 00 00 00
 (2019-02-07 16:16:27.392502)  can0  001   [7]  00 00 00 00 00 00 00
 (2019-02-07 16:16:27.392675)  can0  002   [4]  00 BC 00 16
 (2019-02-07 16:16:27.429894)  can0  003   [8]  B8 9F E6 9F 8E 9F 80 9F
 (2019-02-07 16:16:27.430110)  can0  004   [8]  C9 9F 9A 9F A1 9F E1 9F
 (2019-02-07 16:16:27.430363)  can0  005   [8]  00 00 00 00 00 00 00 00
 (2019-02-07 16:16:27.430607)  can0  006   [8]  00 00 00 00 00 00 0C 00
 (2019-02-07 16:16:27.434477)  can0  000   [8]  00 00 00 00 00 00 00 00
 (2019-02-07 16:16:27.434704)  can0  001   [7]  00 00 00 00 00 00 00
 (2019-02-07 16:16:27.434879)  can0  002   [4]  00 BC 00 16
 (2019-02-07 16:16:27.472091)  can0  003   [8]  BA 9F E1 9F 8F 9F 81 9F
 (2019-02-07 16:16:27.472316)  can0  004   [8]  CD 9F 9B 9F A4 9F E3 9F
 (2019-02-07 16:16:27.472575)  can0  005   [8]  00 00 00 00 00 00 00 00
 (2019-02-07 16:16:27.472816)  can0  006   [8]  00 00 00 00 00 00 0C 00
 (2019-02-07 16:16:27.476674)  can0  000   [8]  00 00 00 00 00 00 00 00
 (2019-02-07 16:16:27.476904)  can0  001   [7]  00 00 00 00 00 00 00
 (2019-02-07 16:16:27.477073)  can0  002   [4]  00 BC 00 16
 (2019-02-07 16:16:27.514323)  can0  003   [8]  BA 9F E1 9F 8D 9F 86 9F
 (2019-02-07 16:16:27.514508)  can0  004   [8]  CB 9F 97 9F A5 9F E5 9F
 (2019-02-07 16:16:27.514785)  can0  005   [8]  00 00 00 00 00 00 00 00
 (2019-02-07 16:16:27.515015)  can0  006   [8]  00 00 00 00 00 00 0C 00
 (2019-02-07 16:16:27.518897)  can0  000   [8]  00 00 00 00 00 00 00 00
 (2019-02-07 16:16:27.519106)  can0  001   [7]  00 00 00 00 00 00 00
 (2019-02-07 16:16:27.519274)  can0  002   [4]  00 BC 00 16
 (2019-02-07 16:16:27.556495)  can0  003   [8]  B6 9F E2 9F 91 9F 7D 9F
 (2019-02-07 16:16:27.556716)  can0  004   [8]  C6 9F 91 9F A5 9F E3 9F
 (2019-02-07 16:16:27.556963)  can0  005   [8]  00 00 00 00 00 00 00 00
 (2019-02-07 16:16:27.557211)  can0  006   [8]  00 00 00 00 00 00 0C 00
 (2019-02-07 16:16:27.561073)  can0  000   [8]  00 00 00 00 00 00 00 00
 (2019-02-07 16:16:27.561302)  can0  001   [7]  00 00 00 00 00 00 00
 (2019-02-07 16:16:27.561482)  can0  002   [4]  00 BC 00 16
 (2019-02-07 16:16:27.598695)  can0  003   [8]  B9 9F E4 9F 8F 9F 88 9F
 (2019-02-07 16:16:27.598912)  can0  004   [8]  CB 9F 99 9F A5 9F E1 9F
 (2019-02-07 16:16:27.599164)  can0  005   [8]  00 00 00 00 00 00 00 00
 (2019-02-07 16:16:27.599410)  can0  006   [8]  00 00 00 00 00 00 0C 00
 (2019-02-07 16:16:27.603279)  can0  000   [8]  00 00 00 00 00 00 00 00
 (2019-02-07 16:16:27.603507)  can0  001   [7]  00 00 00 00 00 00 00
 (2019-02-07 16:16:27.603676)  can0  002   [4]  00 BC 00 16
 (2019-02-07 16:16:27.640890)  can0  003   [8]  BC 9F E8 9F 93 9F 82 9F
 (2019-02-07 16:16:27.641116)  can0  004   [8]  C7 9F 93 9F A0 9F E1 9F
 (2019-02-07 16:16:27.641366)  can0  005   [8]  00 00 00 00 00 00 00 00
 (2019-02-07 16:16:27.641614)  can0  006   [8]  00 00 00 00 00 00 0C 00
 (2019-02-07 16:16:27.645491)  can0  000   [8]  00 00 00 00 00 00 00 00
 (2019-02-07 16:16:27.645723)  can0  001   [7]  00 00 00 00 00 00 00
 (2019-02-07 16:16:27.645878)  can0  002   [4]  00 BC 00 16
 (2019-02-07 16:16:27.683090)  can0  003   [8]  B9 9F E2 9F 97 9F 86 9F
 (2019-02-07 16:16:27.683324)  can0  004   [8]  CB 9F 91 9F A9 9F DB 9F
 (2019-02-07 16:16:27.683564)  can0  005   [8]  00 00 00 00 00 00 00 00
 (2019-02-07 16:16:27.683813)  can0  006   [8]  00 00 00 00 00 00 0C 00
 (2019-02-07 16:16:27.687678)  can0  000   [8]  00 00 00 00 00 00 00 00
 (2019-02-07 16:16:27.687908)  can0  001   [7]  00 00 00 00 00 00 00
 (2019-02-07 16:16:27.688077)  can0  002   [4]  00 BC 00 16
 (2019-02-07 16:16:27.725294)  can0  003   [8]  BC 9F E2 9F 91 9F 84 9F
 (2019-02-07 16:16:27.725531)  can0  004   [8]  CB 9F 90 9F 9F 9F E0 9F
 (2019-02-07 16:16:27.725771)  can0  005   [8]  00 00 00 00 00 00 00 00
 (2019-02-07 16:16:27.726020)  can0  006   [8]  00 00 00 00 00 00 0C 00
 (2019-02-07 16:16:27.729881)  can0  000   [8]  00 00 00 00 00 00 00 00
 (2019-02-07 16:16:27.730110)  can0  001   [7]  00 00 00 00 00 00 00
 (2019-02-07 16:16:27.730280)  can0  002   [4]  00 BC 00 16
 (2019-02-07 16:16:27.767501)  can0  003   [8]  BD 9F E4 9F 93 9F 84 9F
 (2019-02-07 16:16:27.767726)  can0  004   [8]  CF 9F 91 9F 9F 9F E3 9F
 (2019-02-07 16:16:27.767970)  can0  005   [8]  00 00 00 00 00 00 00 00
 (2019-02-07 16:16:27.768217)  can0  006   [8]  00 00 00 00 00 00 0C 00
 (2019-02-07 16:16:27.772079)  can0  000   [8]  00 00 00 00 00 00 00 00
 (2019-02-07 16:16:27.772332)  can0  001   [7]  00 00 00 00 00 00 00
 (2019-02-07 16:16:27.772485)  can0  002   [4]  00 BC 00 16
 (2019-02-07 16:16:27.809702)  can0  003   [8]  BE 9F EA 9F 99 9F 85 9F
 (2019-02-07 16:16:27.809914)  can0  004   [8]  C7 9F 98 9F A5 9F E8 9F
 (2019-02-07 16:16:27.810163)  can0  005   [8]  00 00 00 00 00 00 00 00
 (2019-02-07 16:16:27.810428)  can0  006   [8]  00 00 00 00 00 00 0C 00
 (2019-02-07 16:16:27.814303)  can0  000   [8]  00 00 00 00 00 00 00 00
 (2019-02-07 16:16:27.814526)  can0  001   [7]  00 00 00 00 00 00 00
 (2019-02-07 16:16:27.814711)  can0  002   [4]  00 BC 00 16
 (2019-02-07 16:16:27.851926)  can0  003   [8]  BE 9F E4 9F 93 9F 86 9F
 (2019-02-07 16:16:27.852175)  can0  004   [8]  CE 9F 95 9F A9 9F E3 9F
 (2019-02-07 16:16:27.852391)  can0  005   [8]  00 00 00 00 00 00 00 00
 (2019-02-07 16:16:27.852636)  can0  006   [8]  00 00 00 00 00 00 0C 00
 (2019-02-07 16:16:27.856524)  can0  000   [8]  00 00 00 00 00 00 00 00
 (2019-02-07 16:16:27.856746)  can0  001   [7]  00 00 00 00 00 00 00
 (2019-02-07 16:16:27.856900)  can0  002   [4]  00 BC 00 16
 (2019-02-07 16:16:27.894129)  can0  003   [8]  BC 9F E0 9F 97 9F 7E 9F
 (2019-02-07 16:16:27.894341)  can0  004   [8]  CA 9F 92 9F 9F 9F DD 9F
 (2019-02-07 16:16:27.894608)  can0  005   [8]  00 00 00 00 00 00 00 00
 (2019-02-07 16:16:27.894857)  can0  006   [8]  00 00 00 00 00 00 0C 00
 (2019-02-07 16:16:27.898713)  can0  000   [8]  00 00 00 00 00 00 00 00
 (2019-02-07 16:16:27.898930)  can0  001   [7]  00 00 00 00 00 00 00
 (2019-02-07 16:16:27.899105)  can0  002   [4]  00 BC 00 16
 (2019-02-07 16:16:27.936329)  can0  003   [8]  BB 9F E4 9F 8D 9F 85 9F
 (2019-02-07 16:16:27.936543)  can0  004   [8]  CF 9F 91 9F A1 9F DA 9F
 (2019-02-07 16:16:27.936820)  can0  005   [8]  00 00 00 00 00 00 00 00
 (2019-02-07 16:16:27.937060)  can0  006   [8]  00 00 00 00 00 00 0C 00
 (2019-02-07 16:16:27.940942)  can0  000   [8]  00 00 00 00 00 00 00 00
 (2019-02-07 16:16:27.941153)  can0  001   [7]  00 00 00 00 00 00 00
 (2019-02-07 16:16:27.941305)  can0  002   [4]  00 BC 00 16
 (2019-02-07 16:16:27.978532)  can0  003   [8]  BD 9F E8 9F 93 9F 7E 9F
 (2019-02-07 16:16:27.978744)  can0  004   [8]  C9 9F 99 9F A7 9F DB 9F
 (2019-02-07 16:16:27.979008)  can0  005   [8]  00 00 00 00 00 00 00 00
 (2019-02-07 16:16:27.979246)  can0  006   [8]  00 00 00 00 00 00 0C 00
 (2019-02-07 16:16:27.983117)  can0  000   [8]  00 00 00 00 00 00 00 00
 (2019-02-07 16:16:27.983335)  can0  001   [7]  00 00 00 00 00 00 00
 (2019-02-07 16:16:27.983505)  can0  002   [4]  00 BC 00 16
 (2019-02-07 16:16:28.020732)  can0  003   [8]  BB 9F E4 9F 90 9F 85 9F
 (2019-02-07 16:16:28.020952)  can0  004   [8]  CB 9F 95 9F A2 9F DD 9F
 (2019-02-07 16:16:28.021195)  can0  005   [8]  00 00 00 00 00 00 00 00
 (2019-02-07 16:16:28.021443)  can0  006   [8]  00 00 00 00 00 00 0C 00
 (2019-02-07 16:16:28.025317)  can0  000   [8]  00 00 00 00 00 00 00 00
 (2019-02-07 16:16:28.025533)  can0  001   [7]  00 00 00 00 00 00 00
 (2019-02-07 16:16:28.025705)  can0  002   [4]  00 BC 00 16
 (2019-02-07 16:16:28.063018)  can0  003   [8]  B6 9F E4 9F 8B 9F 82 9F
 (2019-02-07 16:16:28.063125)  can0  004   [8]  CB 9F 92 9F AB 9F E1 9F
 (2019-02-07 16:16:28.063498)  can0  005   [8]  00 00 00 00 00 00 00 00
 (2019-02-07 16:16:28.063661)  can0  006   [8]  00 00 00 00 00 00 0C 00
 (2019-02-07 16:16:28.067682)  can0  000   [8]  00 00 00 00 00 00 00 00
 (2019-02-07 16:16:28.067872)  can0  001   [7]  00 00 00 00 00 00 00
 (2019-02-07 16:16:28.067946)  can0  002   [4]  00 BC 00 16
 (2019-02-07 16:16:28.105186)  can0  003   [8]  BD 9F E8 9F 95 9F 85 9F
 (2019-02-07 16:16:28.105360)  can0  004   [8]  CC 9F 94 9F A5 9F E6 9F
 (2019-02-07 16:16:28.105615)  can0  005   [8]  00 00 00 00 00 00 00 00
 (2019-02-07 16:16:28.105861)  can0  006   [8]  00 00 00 00 00 00 0C 00
 (2019-02-07 16:16:28.109720)  can0  000   [8]  00 00 00 00 00 00 00 00
 (2019-02-07 16:16:28.109946)  can0  001   [7]  00 00 00 00 00 00 00
 (2019-02-07 16:16:28.110117)  can0  002   [4]  00 BC 00 16
 (2019-02-07 16:16:28.147343)  can0  003   [8]  BE 9F E6 9F 8E 9F 7E 9F
 (2019-02-07 16:16:28.147555)  can0  004   [8]  C7 9F 96 9F A7 9F E6 9F
 (2019-02-07 16:16:28.147805)  can0  005   [8]  00 00 00 00 00 00 00 00
 (2019-02-07 16:16:28.148051)  can0  006   [8]  00 00 00 00 00 00 0C 00
 (2019-02-07 16:16:28.151930)  can0  000   [8]  00 00 00 00 00 00 00 00
 (2019-02-07 16:16:28.152187)  can0  001   [7]  00 00 00 00 00 00 00
 (2019-02-07 16:16:28.152322)  can0  002   [4]  00 BC 00 16
 (2019-02-07 16:16:28.189535)  can0  003   [8]  C0 9F EB 9F 90 9F 82 9F
 (2019-02-07 16:16:28.189759)  can0  004   [8]  CE 9F 96 9F A5 9F E1 9F
 (2019-02-07 16:16:28.190005)  can0  005   [8]  00 00 00 00 00 00 00 00
 (2019-02-07 16:16:28.190253)  can0  006   [8]  00 00 00 00 00 00 0C 00
 (2019-02-07 16:16:28.194119)  can0  000   [8]  00 00 00 00 00 00 00 00
 (2019-02-07 16:16:28.194342)  can0  001   [7]  00 00 00 00 00 00 00
 (2019-02-07 16:16:28.194512)  can0  002   [4]  00 BC 00 16
 (2019-02-07 16:16:28.231738)  can0  003   [8]  BE 9F EA 9F 8F 9F 80 9F
 (2019-02-07 16:16:28.231963)  can0  004   [8]  C9 9F 91 9F A0 9F DE 9F
 (2019-02-07 16:16:28.232227)  can0  005   [8]  00 00 00 00 00 00 00 00
 (2019-02-07 16:16:28.232455)  can0  006   [8]  00 00 00 00 00 00 0C 00
 (2019-02-07 16:16:28.236310)  can0  000   [8]  00 00 00 00 00 00 00 00
 (2019-02-07 16:16:28.236538)  can0  001   [7]  00 00 00 00 00 00 00
 (2019-02-07 16:16:28.236713)  can0  002   [4]  00 BC 00 16
 (2019-02-07 16:16:28.273945)  can0  003   [8]  C2 9F E4 9F 8F 9F 85 9F
 (2019-02-07 16:16:28.274158)  can0  004   [8]  CB 9F 93 9F A3 9F E3 9F
 (2019-02-07 16:16:28.274401)  can0  005   [8]  00 00 00 00 00 00 00 00
 (2019-02-07 16:16:28.274655)  can0  006   [8]  00 00 00 00 00 00 0C 00
 (2019-02-07 16:16:28.278515)  can0  000   [8]  00 00 00 00 00 00 00 00
 (2019-02-07 16:16:28.278746)  can0  001   [7]  00 00 00 00 00 00 00
 (2019-02-07 16:16:28.278913)  can0  002   [4]  00 BC 00 16
 (2019-02-07 16:16:28.316130)  can0  003   [8]  C0 9F E4 9F 93 9F 84 9F
 (2019-02-07 16:16:28.316354)  can0  004   [8]  CB 9F 8F 9F A5 9F E1 9F
 (2019-02-07 16:16:28.316610)  can0  005   [8]  00 00 00 00 00 00 00 00
 (2019-02-07 16:16:28.316853)  can0  006   [8]  00 00 00 00 00 00 0C 00
 (2019-02-07 16:16:28.320717)  can0  000   [8]  00 00 00 00 00 00 00 00
 (2019-02-07 16:16:28.320944)  can0  001   [7]  00 00 00 00 00 00 00
 (2019-02-07 16:16:28.321114)  can0  002   [4]  00 BC 00 16
 (2019-02-07 16:16:28.358332)  can0  003   [8]  C3 9F E6 9F 89 9F 80 9F
 (2019-02-07 16:16:28.358553)  can0  004   [8]  CF 9F 9B 9F A2 9F DB 9F
 (2019-02-07 16:16:28.358803)  can0  005   [8]  00 00 00 00 00 00 00 00
 (2019-02-07 16:16:28.359050)  can0  006   [8]  00 00 00 00 00 00 0C 00
 (2019-02-07 16:16:28.362919)  can0  000   [8]  00 00 00 00 00 00 00 00
 (2019-02-07 16:16:28.363142)  can0  001   [7]  00 00 00 00 00 00 00
 (2019-02-07 16:16:28.363318)  can0  002   [4]  00 BC 00 16
 (2019-02-07 16:16:28.400534)  can0  003   [8]  C0 9F E4 9F 95 9F 86 9F
 (2019-02-07 16:16:28.400757)  can0  004   [8]  CB 9F 8B 9F A9 9F DF 9F
 (2019-02-07 16:16:28.401001)  can0  005   [8]  00 00 00 00 00 00 00 00
 (2019-02-07 16:16:28.401251)  can0  006   [8]  00 00 00 00 00 00 0C 00
 (2019-02-07 16:16:28.405119)  can0  000   [8]  00 00 00 00 00 00 00 00
 (2019-02-07 16:16:28.405349)  can0  001   [7]  00 00 00 00 00 00 00
 (2019-02-07 16:16:28.405515)  can0  002   [4]  00 BC 00 16
 (2019-02-07 16:16:28.442806)  can0  003   [8]  C2 9F E6 9F 8E 9F 86 9F
 (2019-02-07 16:16:28.442904)  can0  004   [8]  CE 9F 99 9F AA 9F E1 9F
 (2019-02-07 16:16:28.443225)  can0  005   [8]  00 00 00 00 00 00 00 00
 (2019-02-07 16:16:28.443465)  can0  006   [8]  00 00 00 00 00 00 0C 00
 (2019-02-07 16:16:28.447323)  can0  000   [8]  00 00 00 00 00 00 00 00
 (2019-02-07 16:16:28.447548)  can0  001   [7]  00 00 00 00 00 00 00
 (2019-02-07 16:16:28.447723)  can0  002   [4]  00 BC 00 16
 (2019-02-07 16:16:28.484984)  can0  003   [8]  C6 9F E2 9F 8D 9F 87 9F
 (2019-02-07 16:16:28.485137)  can0  004   [8]  CE 9F 97 9F A4 9F EA 9F
 (2019-02-07 16:16:28.485409)  can0  005   [8]  00 00 00 00 00 00 00 00
 (2019-02-07 16:16:28.485652)  can0  006   [8]  00 00 00 00 00 00 0C 00
 (2019-02-07 16:16:28.489554)  can0  000   [8]  00 00 00 00 00 00 00 00
 (2019-02-07 16:16:28.489754)  can0  001   [7]  00 00 00 00 00 00 00
 (2019-02-07 16:16:28.489928)  can0  002   [4]  00 BC 00 16
 (2019-02-07 16:16:28.527229)  can0  003   [8]  C4 9F E2 9F 91 9F 7E 9F
 (2019-02-07 16:16:28.527347)  can0  004   [8]  C7 9F 95 9F A9 9F E7 9F
 (2019-02-07 16:16:28.527636)  can0  005   [8]  00 00 00 00 00 00 00 00
 (2019-02-07 16:16:28.527872)  can0  006   [8]  00 00 00 00 00 00 0C 00
 (2019-02-07 16:16:28.531758)  can0  000   [8]  00 00 00 00 00 00 00 00
 (2019-02-07 16:16:28.531955)  can0  001   [7]  00 00 00 00 00 00 00
 (2019-02-07 16:16:28.532221)  can0  002   [4]  00 BC 00 16
 (2019-02-07 16:16:28.569345)  can0  003   [8]  BE 9F E7 9F 91 9F 82 9F
 (2019-02-07 16:16:28.569555)  can0  004   [8]  C7 9F 91 9F A7 9F E6 9F
 (2019-02-07 16:16:28.569803)  can0  005   [8]  00 00 00 00 00 00 00 00
 (2019-02-07 16:16:28.570053)  can0  006   [8]  00 00 00 00 00 00 0C 00
 (2019-02-07 16:16:28.573929)  can0  000   [8]  00 00 00 00 00 00 00 00
 (2019-02-07 16:16:28.574147)  can0  001   [7]  00 00 00 00 00 00 00
 (2019-02-07 16:16:28.574323)  can0  002   [4]  00 BC 00 16
 (2019-02-07 16:16:28.611556)  can0  003   [8]  C5 9F E8 9F 97 9F 86 9F
 (2019-02-07 16:16:28.611760)  can0  004   [8]  C7 9F 8F 9F A7 9F E2 9F
 (2019-02-07 16:16:28.612011)  can0  005   [8]  00 00 00 00 00 00 00 00
 (2019-02-07 16:16:28.612262)  can0  006   [8]  00 00 00 00 00 00 0C 00
 (2019-02-07 16:16:28.616122)  can0  000   [8]  00 00 00 00 00 00 00 00
 (2019-02-07 16:16:28.616350)  can0  001   [7]  00 00 00 00 00 00 00
 (2019-02-07 16:16:28.616520)  can0  002   [4]  00 BC 00 16
 (2019-02-07 16:16:28.653737)  can0  003   [8]  C1 9F E9 9F 99 9F 87 9F
 (2019-02-07 16:16:28.653964)  can0  004   [8]  CA 9F 91 9F 9F 9F E1 9F
 (2019-02-07 16:16:28.654214)  can0  005   [8]  00 00 00 00 00 00 00 00
 (2019-02-07 16:16:28.654461)  can0  006   [8]  00 00 00 00 00 00 0C 00
 (2019-02-07 16:16:28.658330)  can0  000   [8]  00 00 00 00 00 00 00 00
 (2019-02-07 16:16:28.658557)  can0  001   [7]  00 00 00 00 00 00 00
 (2019-02-07 16:16:28.658726)  can0  002   [4]  00 BC 00 16
 (2019-02-07 16:16:28.695947)  can0  003   [8]  C2 9F E8 9F 93 9F 87 9F
 (2019-02-07 16:16:28.696161)  can0  004   [8]  C9 9F 93 9F A7 9F E5 9F
 (2019-02-07 16:16:28.696418)  can0  005   [8]  00 00 00 00 00 00 00 00
 (2019-02-07 16:16:28.696653)  can0  006   [8]  00 00 00 00 00 00 0C 00
 (2019-02-07 16:16:28.700523)  can0  000   [8]  00 00 00 00 00 00 00 00
 (2019-02-07 16:16:28.700779)  can0  001   [7]  00 00 00 00 00 00 00
 (2019-02-07 16:16:28.700914)  can0  002   [4]  00 BC 00 16
 (2019-02-07 16:16:28.738142)  can0  003   [8]  C3 9F E4 9F 93 9F 7E 9F
 (2019-02-07 16:16:28.738365)  can0  004   [8]  C7 9F 93 9F A1 9F E1 9F
 (2019-02-07 16:16:28.738610)  can0  005   [8]  00 00 00 00 00 00 00 00
 (2019-02-07 16:16:28.738861)  can0  006   [8]  00 00 00 00 00 00 0C 00
 (2019-02-07 16:16:28.742731)  can0  000   [8]  00 00 00 00 00 00 00 00
 (2019-02-07 16:16:28.742956)  can0  001   [7]  00 00 00 00 00 00 00
 (2019-02-07 16:16:28.743124)  can0  002   [4]  00 BC 00 16
 (2019-02-07 16:16:28.780462)  can0  003   [8]  BE 9F E2 9F 93 9F 88 9F
 (2019-02-07 16:16:28.780574)  can0  004   [8]  CB 9F 99 9F A5 9F E1 9F
 (2019-02-07 16:16:28.780855)  can0  005   [8]  00 00 00 00 00 00 00 00
 (2019-02-07 16:16:28.781083)  can0  006   [8]  00 00 00 00 00 00 0C 00
 (2019-02-07 16:16:28.784999)  can0  000   [8]  00 00 00 00 00 00 00 00
 (2019-02-07 16:16:28.785154)  can0  001   [7]  00 00 00 00 00 00 00
 (2019-02-07 16:16:28.785355)  can0  002   [4]  00 BC 00 16
 (2019-02-07 16:16:28.822605)  can0  003   [8]  C2 9F EC 9F 91 9F 82 9F
 (2019-02-07 16:16:28.822808)  can0  004   [8]  C9 9F 95 9F A7 9F E1 9F
 (2019-02-07 16:16:28.823019)  can0  005   [8]  00 00 00 00 00 00 00 00
 (2019-02-07 16:16:28.823269)  can0  006   [8]  00 00 00 00 00 00 0C 00
 (2019-02-07 16:16:28.827130)  can0  000   [8]  00 00 00 00 00 00 00 00
 (2019-02-07 16:16:28.827361)  can0  001   [7]  00 00 00 00 00 00 00
 (2019-02-07 16:16:28.827527)  can0  002   [4]  00 BC 00 16
 (2019-02-07 16:16:28.864748)  can0  003   [8]  C8 9F E7 9F 94 9F 85 9F
 (2019-02-07 16:16:28.864967)  can0  004   [8]  CE 9F 93 9F A4 9F DF 9F
 (2019-02-07 16:16:28.865213)  can0  005   [8]  00 00 00 00 00 00 00 00
 (2019-02-07 16:16:28.865468)  can0  006   [8]  00 00 00 00 00 00 0C 00
 (2019-02-07 16:16:28.869325)  can0  000   [8]  00 00 00 00 00 00 00 00
 (2019-02-07 16:16:28.869554)  can0  001   [7]  00 00 00 00 00 00 00
 (2019-02-07 16:16:28.869729)  can0  002   [4]  00 BC 00 16
 (2019-02-07 16:16:28.906970)  can0  003   [8]  C6 9F E0 9F 8F 9F 80 9F
 (2019-02-07 16:16:28.907181)  can0  004   [8]  C9 9F 93 9F 9F 9F E7 9F
 (2019-02-07 16:16:28.907425)  can0  005   [8]  00 00 00 00 00 00 00 00
 (2019-02-07 16:16:28.907674)  can0  006   [8]  00 00 00 00 00 00 0C 00
 (2019-02-07 16:16:28.911528)  can0  000   [8]  00 00 00 00 00 00 00 00
 (2019-02-07 16:16:28.911780)  can0  001   [7]  00 00 00 00 00 00 00
 (2019-02-07 16:16:28.911939)  can0  002   [4]  00 BC 00 16
 (2019-02-07 16:16:28.949149)  can0  003   [8]  C4 9F E2 9F 98 9F 83 9F
 (2019-02-07 16:16:28.949374)  can0  004   [8]  C6 9F 95 9F AB 9F E7 9F
 (2019-02-07 16:16:28.949619)  can0  005   [8]  00 00 00 00 00 00 00 00
 (2019-02-07 16:16:28.949872)  can0  006   [8]  00 00 00 00 00 00 0C 00
 (2019-02-07 16:16:28.953730)  can0  000   [8]  00 00 00 00 00 00 00 00
 (2019-02-07 16:16:28.953958)  can0  001   [7]  00 00 00 00 00 00 00
 (2019-02-07 16:16:28.954129)  can0  002   [4]  00 BC 00 16
 (2019-02-07 16:16:28.991361)  can0  003   [8]  C3 9F EA 9F 8F 9F 84 9F
 (2019-02-07 16:16:28.991585)  can0  004   [8]  C7 9F 97 9F A6 9F DF 9F
 (2019-02-07 16:16:28.991828)  can0  005   [8]  00 00 00 00 00 00 00 00
 (2019-02-07 16:16:28.992071)  can0  006   [8]  00 00 00 00 00 00 0C 00
 (2019-02-07 16:16:28.995932)  can0  000   [8]  00 00 00 00 00 00 00 00
 (2019-02-07 16:16:28.996160)  can0  001   [7]  00 00 00 00 00 00 00
 (2019-02-07 16:16:28.996330)  can0  002   [4]  00 BC 00 16
 (2019-02-07 16:16:29.033541)  can0  003   [8]  C6 9F E4 9F 91 9F 84 9F
 (2019-02-07 16:16:29.033767)  can0  004   [8]  CC 9F 98 9F 9C 9F E7 9F
 (2019-02-07 16:16:29.034015)  can0  005   [8]  00 00 00 00 00 00 00 00
 (2019-02-07 16:16:29.034269)  can0  006   [8]  00 00 00 00 00 00 0C 00
 (2019-02-07 16:16:29.038130)  can0  000   [8]  00 00 00 00 00 00 00 00
 (2019-02-07 16:16:29.038361)  can0  001   [7]  00 00 00 00 00 00 00
 (2019-02-07 16:16:29.038530)  can0  002   [4]  00 BC 00 16
 (2019-02-07 16:16:29.075845)  can0  003   [8]  C0 9F E9 9F 8F 9F 81 9F
 (2019-02-07 16:16:29.075968)  can0  004   [8]  C9 9F 94 9F A0 9F E4 9F
 (2019-02-07 16:16:29.076278)  can0  005   [8]  00 00 00 00 00 00 00 00
 (2019-02-07 16:16:29.076495)  can0  006   [8]  00 00 00 00 00 00 0C 00
 (2019-02-07 16:16:29.080348)  can0  000   [8]  00 00 00 00 00 00 00 00
 (2019-02-07 16:16:29.080568)  can0  001   [7]  00 00 00 00 00 00 00
 (2019-02-07 16:16:29.080741)  can0  002   [4]  00 BC 00 16
 (2019-02-07 16:16:29.118001)  can0  003   [8]  C2 9F E6 9F 8D 9F 82 9F
 (2019-02-07 16:16:29.118161)  can0  004   [8]  CB 9F 9B 9F 9E 9F E5 9F
 (2019-02-07 16:16:29.118429)  can0  005   [8]  00 00 00 00 00 00 00 00
 (2019-02-07 16:16:29.118670)  can0  006   [8]  00 00 00 00 00 00 0C 00
 (2019-02-07 16:16:29.122608)  can0  000   [8]  00 00 00 00 00 00 00 00
 (2019-02-07 16:16:29.122853)  can0  001   [7]  00 00 00 00 00 00 00
 (2019-02-07 16:16:29.122929)  can0  002   [4]  00 BC 00 16
 (2019-02-07 16:16:29.160214)  can0  003   [8]  C2 9F E8 9F 8F 9F 80 9F
 (2019-02-07 16:16:29.160367)  can0  004   [8]  CB 9F 9B 9F A7 9F DF 9F
 (2019-02-07 16:16:29.160638)  can0  005   [8]  00 00 00 00 00 00 00 00
 (2019-02-07 16:16:29.160886)  can0  006   [8]  00 00 00 00 00 00 0C 00
 (2019-02-07 16:16:29.164747)  can0  000   [8]  00 00 00 00 00 00 00 00
 (2019-02-07 16:16:29.164966)  can0  001   [7]  00 00 00 00 00 00 00
 (2019-02-07 16:16:29.165138)  can0  002   [4]  00 BC 00 16
 (2019-02-07 16:16:29.202398)  can0  003   [8]  C2 9F E3 9F 97 9F 87 9F
 (2019-02-07 16:16:29.202585)  can0  004   [8]  C5 9F 94 9F A9 9F E1 9F
 (2019-02-07 16:16:29.202826)  can0  005   [8]  00 00 00 00 00 00 00 00
 (2019-02-07 16:16:29.203075)  can0  006   [8]  00 00 00 00 00 00 0C 00
 (2019-02-07 16:16:29.206937)  can0  000   [8]  00 00 00 00 00 00 00 00
 (2019-02-07 16:16:29.207166)  can0  001   [7]  00 00 00 00 00 00 00
 (2019-02-07 16:16:29.207336)  can0  002   [4]  00 BC 00 16
 (2019-02-07 16:16:29.244575)  can0  003   [8]  C6 9F E3 9F 90 9F 86 9F
 (2019-02-07 16:16:29.244789)  can0  004   [8]  D0 9F 9F 9F A3 9F E1 9F
 (2019-02-07 16:16:29.245028)  can0  005   [8]  00 00 00 00 00 00 00 00
 (2019-02-07 16:16:29.245273)  can0  006   [8]  00 00 00 00 00 00 0C 00
 (2019-02-07 16:16:29.249144)  can0  000   [8]  00 00 00 00 00 00 00 00
 (2019-02-07 16:16:29.249369)  can0  001   [7]  00 00 00 00 00 00 00
 (2019-02-07 16:16:29.249537)  can0  002   [4]  00 BC 00 16
 (2019-02-07 16:16:29.286830)  can0  003   [8]  C8 9F EA 9F 8D 9F 8B 9F
 (2019-02-07 16:16:29.286932)  can0  004   [8]  CB 9F 94 9F A8 9F E7 9F
 (2019-02-07 16:16:29.287257)  can0  005   [8]  00 00 00 00 00 00 00 00
 (2019-02-07 16:16:29.287485)  can0  006   [8]  00 00 00 00 00 00 0C 00
 (2019-02-07 16:16:29.291388)  can0  000   [8]  00 00 00 00 00 00 00 00
 (2019-02-07 16:16:29.291562)  can0  001   [7]  00 00 00 00 00 00 00
 (2019-02-07 16:16:29.291748)  can0  002   [4]  00 BC 00 16
 (2019-02-07 16:16:29.329029)  can0  003   [8]  C4 9F E8 9F 91 9F 84 9F
 (2019-02-07 16:16:29.329131)  can0  004   [8]  C5 9F 94 9F A9 9F DD 9F
 (2019-02-07 16:16:29.329441)  can0  005   [8]  00 00 00 00 00 00 00 00
 (2019-02-07 16:16:29.329679)  can0  006   [8]  00 00 00 00 00 00 0C 00
 (2019-02-07 16:16:29.333601)  can0  000   [8]  00 00 00 00 00 00 00 00
 (2019-02-07 16:16:29.333759)  can0  001   [7]  00 00 00 00 00 00 00
 (2019-02-07 16:16:29.333962)  can0  002   [4]  00 BC 00 16
 (2019-02-07 16:16:29.371233)  can0  003   [8]  C6 9F E6 9F 93 9F 80 9F
 (2019-02-07 16:16:29.371335)  can0  004   [8]  CF 9F 90 9F A9 9F DD 9F
 (2019-02-07 16:16:29.371651)  can0  005   [8]  00 00 00 00 00 00 00 00
 (2019-02-07 16:16:29.371886)  can0  006   [8]  00 00 00 00 00 00 0C 00
 (2019-02-07 16:16:29.375779)  can0  000   [8]  00 00 00 00 00 00 00 00
 (2019-02-07 16:16:29.375988)  can0  001   [7]  00 00 00 00 00 00 00
 (2019-02-07 16:16:29.376147)  can0  002   [4]  00 BC 00 16
 (2019-02-07 16:16:29.413387)  can0  003   [8]  C6 9F DF 9F 91 9F 81 9F
 (2019-02-07 16:16:29.413586)  can0  004   [8]  CC 9F 93 9F A1 9F E5 9F
 (2019-02-07 16:16:29.413834)  can0  005   [8]  00 00 00 00 00 00 00 00
 (2019-02-07 16:16:29.414080)  can0  006   [8]  00 00 00 00 00 00 0C 00
 (2019-02-07 16:16:29.417942)  can0  000   [8]  00 00 00 00 00 00 00 00
 (2019-02-07 16:16:29.418169)  can0  001   [7]  00 00 00 00 00 00 00
 (2019-02-07 16:16:29.418340)  can0  002   [4]  00 BC 00 16
 (2019-02-07 16:16:29.455567)  can0  003   [8]  C5 9F E2 9F 94 9F 84 9F
 (2019-02-07 16:16:29.455782)  can0  004   [8]  CC 9F 90 9F A4 9F E2 9F
 (2019-02-07 16:16:29.456041)  can0  005   [8]  00 00 00 00 00 00 00 00
 (2019-02-07 16:16:29.456273)  can0  006   [8]  00 00 00 00 00 00 0C 00
 (2019-02-07 16:16:29.460141)  can0  000   [8]  00 00 00 00 00 00 00 00
 (2019-02-07 16:16:29.460373)  can0  001   [7]  00 00 00 00 00 00 00
 (2019-02-07 16:16:29.460539)  can0  002   [4]  00 BC 00 16
 (2019-02-07 16:16:29.497770)  can0  003   [8]  C8 9F E6 9F 95 9F 82 9F
 (2019-02-07 16:16:29.497982)  can0  004   [8]  CD 9F 95 9F A3 9F DB 9F
 (2019-02-07 16:16:29.498232)  can0  005   [8]  00 00 00 00 00 00 00 00
 (2019-02-07 16:16:29.498479)  can0  006   [8]  00 00 00 00 00 00 0C 00
 (2019-02-07 16:16:29.502344)  can0  000   [8]  00 00 00 00 00 00 00 00
 (2019-02-07 16:16:29.502571)  can0  001   [7]  00 00 00 00 00 00 00
 (2019-02-07 16:16:29.502746)  can0  002   [4]  00 BC 00 16
 (2019-02-07 16:16:29.539996)  can0  003   [8]  C8 9F EA 9F 91 9F 7E 9F
 (2019-02-07 16:16:29.540180)  can0  004   [8]  C8 9F 97 9F A5 9F DD 9F
 (2019-02-07 16:16:29.540441)  can0  005   [8]  00 00 00 00 00 00 00 00
 (2019-02-07 16:16:29.540681)  can0  006   [8]  00 00 00 00 00 00 0C 00
 (2019-02-07 16:16:29.544553)  can0  000   [8]  00 00 00 00 00 00 00 00
 (2019-02-07 16:16:29.544780)  can0  001   [7]  00 00 00 00 00 00 00
 (2019-02-07 16:16:29.544949)  can0  002   [4]  00 BC 00 16
 (2019-02-07 16:16:29.582215)  can0  003   [8]  C8 9F E4 9F 91 9F 86 9F
 (2019-02-07 16:16:29.582369)  can0  004   [8]  CB 9F 97 9F A7 9F E2 9F
 (2019-02-07 16:16:29.582633)  can0  005   [8]  00 00 00 00 00 00 00 00
 (2019-02-07 16:16:29.582884)  can0  006   [8]  00 00 00 00 00 00 0C 00
 (2019-02-07 16:16:29.586757)  can0  000   [8]  00 00 00 00 00 00 00 00
 (2019-02-07 16:16:29.586980)  can0  001   [7]  00 00 00 00 00 00 00
 (2019-02-07 16:16:29.587145)  can0  002   [4]  00 BC 00 16
 (2019-02-07 16:16:29.624433)  can0  003   [8]  C6 9F E4 9F 93 9F 83 9F
 (2019-02-07 16:16:29.624608)  can0  004   [8]  CD 9F 9B 9F A8 9F DF 9F
 (2019-02-07 16:16:29.624857)  can0  005   [8]  00 00 00 00 00 00 00 00
 (2019-02-07 16:16:29.625095)  can0  006   [8]  00 00 00 00 00 00 0C 00
 (2019-02-07 16:16:29.629115)  can0  000   [8]  00 00 00 00 00 00 00 00
 (2019-02-07 16:16:29.629184)  can0  001   [7]  00 00 00 00 00 00 00
 (2019-02-07 16:16:29.629376)  can0  002   [4]  00 BC 00 16
 (2019-02-07 16:16:29.666632)  can0  003   [8]  CC 9F E7 9F 95 9F 81 9F
 (2019-02-07 16:16:29.666740)  can0  004   [8]  CB 9F 98 9F A7 9F DB 9F
 (2019-02-07 16:16:29.667073)  can0  005   [8]  00 00 00 00 00 00 00 00
 (2019-02-07 16:16:29.667273)  can0  006   [8]  00 00 00 00 00 00 0C 00
 (2019-02-07 16:16:29.671165)  can0  000   [8]  00 00 00 00 00 00 00 00
 (2019-02-07 16:16:29.671374)  can0  001   [7]  00 00 00 00 00 00 00
 (2019-02-07 16:16:29.671543)  can0  002   [4]  00 BC 00 16
 (2019-02-07 16:16:29.708829)  can0  003   [8]  C5 9F E6 9F 91 9F 82 9F
 (2019-02-07 16:16:29.708982)  can0  004   [8]  CC 9F 9A 9F 9D 9F E9 9F
 (2019-02-07 16:16:29.709225)  can0  005   [8]  00 00 00 00 00 00 00 00
 (2019-02-07 16:16:29.709474)  can0  006   [8]  00 00 00 00 00 00 0C 00
 (2019-02-07 16:16:29.713345)  can0  000   [8]  00 00 00 00 00 00 00 00
 (2019-02-07 16:16:29.713557)  can0  001   [7]  00 00 00 00 00 00 00
 (2019-02-07 16:16:29.713727)  can0  002   [4]  00 BC 00 16
 (2019-02-07 16:16:29.750962)  can0  003   [8]  CA 9F E6 9F 93 9F 84 9F
 (2019-02-07 16:16:29.751169)  can0  004   [8]  CB 9F 98 9F A7 9F E3 9F
 (2019-02-07 16:16:29.751417)  can0  005   [8]  00 00 00 00 00 00 00 00
 (2019-02-07 16:16:29.751674)  can0  006   [8]  00 00 00 00 00 00 0C 00
 (2019-02-07 16:16:29.755534)  can0  000   [8]  00 00 00 00 00 00 00 00
 (2019-02-07 16:16:29.755762)  can0  001   [7]  00 00 00 00 00 00 00
 (2019-02-07 16:16:29.755929)  can0  002   [4]  00 BC 00 16
 (2019-02-07 16:16:29.793140)  can0  003   [8]  C4 9F E0 9F 93 9F 80 9F
 (2019-02-07 16:16:29.793372)  can0  004   [8]  C8 9F 94 9F 9F 9F E7 9F
 (2019-02-07 16:16:29.793619)  can0  005   [8]  00 00 00 00 00 00 00 00
 (2019-02-07 16:16:29.793868)  can0  006   [8]  00 00 00 00 00 00 0C 00
 (2019-02-07 16:16:29.797729)  can0  000   [8]  00 00 00 00 00 00 00 00
 (2019-02-07 16:16:29.797962)  can0  001   [7]  00 00 00 00 00 00 00
 (2019-02-07 16:16:29.798128)  can0  002   [4]  00 BC 00 16
 (2019-02-07 16:16:29.835346)  can0  003   [8]  C8 9F E6 9F 95 9F 86 9F
 (2019-02-07 16:16:29.835569)  can0  004   [8]  CB 9F 97 9F A9 9F DE 9F
 (2019-02-07 16:16:29.835816)  can0  005   [8]  00 00 00 00 00 00 00 00
 (2019-02-07 16:16:29.836062)  can0  006   [8]  00 00 00 00 00 00 0C 00
 (2019-02-07 16:16:29.839933)  can0  000   [8]  00 00 00 00 00 00 00 00
 (2019-02-07 16:16:29.840164)  can0  001   [7]  00 00 00 00 00 00 00
 (2019-02-07 16:16:29.840332)  can0  002   [4]  00 BC 00 16
 (2019-02-07 16:16:29.877550)  can0  003   [8]  C8 9F E6 9F 91 9F 84 9F
 (2019-02-07 16:16:29.877769)  can0  004   [8]  CB 9F 94 9F A9 9F E7 9F
 (2019-02-07 16:16:29.878022)  can0  005   [8]  00 00 00 00 00 00 00 00
 (2019-02-07 16:16:29.878268)  can0  006   [8]  00 00 00 00 00 00 0C 00
 (2019-02-07 16:16:29.882168)  can0  000   [8]  00 00 00 00 00 00 00 00
 (2019-02-07 16:16:29.882368)  can0  001   [7]  00 00 00 00 00 00 00
 (2019-02-07 16:16:29.882534)  can0  002   [4]  00 BC 00 16
 (2019-02-07 16:16:29.919808)  can0  003   [8]  CC 9F E2 9F 93 9F 7F 9F
 (2019-02-07 16:16:29.919982)  can0  004   [8]  C7 9F 94 9F A5 9F E5 9F
 (2019-02-07 16:16:29.920232)  can0  005   [8]  00 00 00 00 00 00 00 00
 (2019-02-07 16:16:29.920477)  can0  006   [8]  00 00 00 00 00 00 0C 00
 (2019-02-07 16:16:29.924395)  can0  000   [8]  00 00 00 00 00 00 00 00
 (2019-02-07 16:16:29.924593)  can0  001   [7]  00 00 00 00 00 00 00
 (2019-02-07 16:16:29.924795)  can0  002   [4]  00 BC 00 16
 (2019-02-07 16:16:29.962068)  can0  003   [8]  CF 9F E6 9F 91 9F 82 9F
 (2019-02-07 16:16:29.962257)  can0  004   [8]  C7 9F 91 9F A5 9F E5 9F
 (2019-02-07 16:16:29.962477)  can0  005   [8]  00 00 00 00 00 00 00 00
 (2019-02-07 16:16:29.962707)  can0  006   [8]  00 00 00 00 00 00 0C 00
 (2019-02-07 16:16:29.966648)  can0  000   [8]  00 00 00 00 00 00 00 00
 (2019-02-07 16:16:29.966773)  can0  001   [7]  00 00 00 00 00 00 00
 (2019-02-07 16:16:29.966989)  can0  002   [4]  00 BC 00 16
 (2019-02-07 16:16:30.004249)  can0  003   [8]  C7 9F E6 9F 91 9F 81 9F
 (2019-02-07 16:16:30.004343)  can0  004   [8]  C8 9F 9B 9F AC 9F E7 9F
 (2019-02-07 16:16:30.004644)  can0  005   [8]  00 00 00 00 00 00 00 00
 (2019-02-07 16:16:30.004909)  can0  006   [8]  00 00 00 00 00 00 0C 00
 (2019-02-07 16:16:30.008766)  can0  000   [8]  00 00 00 00 00 00 00 00
 (2019-02-07 16:16:30.008970)  can0  001   [7]  00 00 00 00 00 00 00
 (2019-02-07 16:16:30.009139)  can0  002   [4]  00 BC 00 16
 (2019-02-07 16:16:30.046382)  can0  003   [8]  CC 9F E6 9F 99 9F 84 9F
 (2019-02-07 16:16:30.046607)  can0  004   [8]  C5 9F 93 9F A1 9F E1 9F
 (2019-02-07 16:16:30.046833)  can0  005   [8]  00 00 00 00 00 00 00 00
 (2019-02-07 16:16:30.047075)  can0  006   [8]  00 00 00 00 00 00 0C 00
 (2019-02-07 16:16:30.050944)  can0  000   [8]  00 00 00 00 00 00 00 00
 (2019-02-07 16:16:30.051172)  can0  001   [7]  00 00 00 00 00 00 00
 (2019-02-07 16:16:30.051337)  can0  002   [4]  00 BC 00 16
 (2019-02-07 16:16:30.088629)  can0  003   [8]  CC 9F E7 9F 95 9F 84 9F
 (2019-02-07 16:16:30.088777)  can0  004   [8]  CB 9F 96 9F A2 9F DB 9F
 (2019-02-07 16:16:30.089028)  can0  005   [8]  00 00 00 00 00 00 00 00
 (2019-02-07 16:16:30.089286)  can0  006   [8]  00 00 00 00 00 00 0C 00
 (2019-02-07 16:16:30.093194)  can0  000   [8]  00 00 00 00 00 00 00 00
 (2019-02-07 16:16:30.093389)  can0  001   [7]  00 00 00 00 00 00 00
 (2019-02-07 16:16:30.093543)  can0  002   [4]  00 BC 00 16
 (2019-02-07 16:16:30.130852)  can0  003   [8]  C9 9F E8 9F 93 9F 85 9F
 (2019-02-07 16:16:30.130946)  can0  004   [8]  C7 9F 91 9F A1 9F E1 9F
 (2019-02-07 16:16:30.131258)  can0  005   [8]  00 00 00 00 00 00 00 00
 (2019-02-07 16:16:30.131491)  can0  006   [8]  00 00 00 00 00 00 0C 00
 (2019-02-07 16:16:30.135420)  can0  000   [8]  00 00 00 00 00 00 00 00
 (2019-02-07 16:16:30.135575)  can0  001   [7]  00 00 00 00 00 00 00
 (2019-02-07 16:16:30.135764)  can0  002   [4]  00 BC 00 16
 (2019-02-07 16:16:30.173022)  can0  003   [8]  CB 9F E9 9F 97 9F 82 9F
 (2019-02-07 16:16:30.173185)  can0  004   [8]  C5 9F 95 9F A9 9F E0 9F
 (2019-02-07 16:16:30.173430)  can0  005   [8]  00 00 00 00 00 00 00 00
 (2019-02-07 16:16:30.173691)  can0  006   [8]  00 00 00 00 00 00 0C 00
 (2019-02-07 16:16:30.177552)  can0  000   [8]  00 00 00 00 00 00 00 00
 (2019-02-07 16:16:30.177770)  can0  001   [7]  00 00 00 00 00 00 00
 (2019-02-07 16:16:30.177942)  can0  002   [4]  00 BC 00 16
 (2019-02-07 16:16:30.215177)  can0  003   [8]  CA 9F EA 9F 8F 9F 80 9F
 (2019-02-07 16:16:30.215383)  can0  004   [8]  C5 9F 97 9F A3 9F E7 9F
 (2019-02-07 16:16:30.215633)  can0  005   [8]  00 00 00 00 00 00 00 00
 (2019-02-07 16:16:30.215885)  can0  006   [8]  00 00 00 00 00 00 0C 00
 (2019-02-07 16:16:30.219741)  can0  000   [8]  00 00 00 00 00 00 00 00
 (2019-02-07 16:16:30.219971)  can0  001   [7]  00 00 00 00 00 00 00
 (2019-02-07 16:16:30.220140)  can0  002   [4]  00 BC 00 16
 (2019-02-07 16:16:30.257412)  can0  003   [8]  CA 9F E7 9F 8F 9F 84 9F
 (2019-02-07 16:16:30.257578)  can0  004   [8]  CB 9F 98 9F A1 9F E6 9F
 (2019-02-07 16:16:30.257830)  can0  005   [8]  00 00 00 00 00 00 00 00
 (2019-02-07 16:16:30.258086)  can0  006   [8]  00 00 00 00 00 00 0C 00
 (2019-02-07 16:16:30.262026)  can0  000   [8]  00 00 00 00 00 00 00 00
 (2019-02-07 16:16:30.262209)  can0  001   [7]  00 00 00 00 00 00 00
 (2019-02-07 16:16:30.262378)  can0  002   [4]  00 BC 00 16
 (2019-02-07 16:16:30.299658)  can0  003   [8]  CC 9F E6 9F 90 9F 80 9F
 (2019-02-07 16:16:30.299751)  can0  004   [8]  CD 9F 9B 9F A5 9F E5 9F
 (2019-02-07 16:16:30.300062)  can0  005   [8]  00 00 00 00 00 00 00 00
 (2019-02-07 16:16:30.300296)  can0  006   [8]  00 00 00 00 00 00 0C 00
 (2019-02-07 16:16:30.304448)  can0  000   [8]  00 00 00 00 00 00 00 00
 (2019-02-07 16:16:30.304649)  can0  002   [4]  00 BC 00 16
 (2019-02-07 16:16:30.304713)  can0  001   [7]  00 00 00 00 00 00 00
 (2019-02-07 16:16:30.341823)  can0  003   [8]  CA 9F E2 9F 91 9F 84 9F
 (2019-02-07 16:16:30.341989)  can0  004   [8]  CC 9F 9B 9F A7 9F E9 9F
 (2019-02-07 16:16:30.342259)  can0  005   [8]  00 00 00 00 00 00 00 00
 (2019-02-07 16:16:30.342505)  can0  006   [8]  00 00 00 00 00 00 0C 00
 (2019-02-07 16:16:30.346368)  can0  000   [8]  00 00 00 00 00 00 00 00
 (2019-02-07 16:16:30.346582)  can0  001   [7]  00 00 00 00 00 00 00
 (2019-02-07 16:16:30.346755)  can0  002   [4]  00 BC 00 16
 (2019-02-07 16:16:30.383982)  can0  003   [8]  CC 9F E4 9F 94 9F 86 9F
 (2019-02-07 16:16:30.384188)  can0  004   [8]  C2 9F 90 9F 9F 9F E5 9F
 (2019-02-07 16:16:30.384438)  can0  005   [8]  00 00 00 00 00 00 00 00
 (2019-02-07 16:16:30.384692)  can0  006   [8]  00 00 00 00 00 00 0C 00
 (2019-02-07 16:16:30.388552)  can0  000   [8]  00 00 00 00 00 00 00 00
 (2019-02-07 16:16:30.388779)  can0  001   [7]  00 00 00 00 00 00 00
 (2019-02-07 16:16:30.388949)  can0  002   [4]  00 BC 00 16
 (2019-02-07 16:16:30.426200)  can0  003   [8]  CC 9F E6 9F 8D 9F 7E 9F
 (2019-02-07 16:16:30.426405)  can0  004   [8]  C5 9F 93 9F 9F 9F E9 9F
 (2019-02-07 16:16:30.426661)  can0  005   [8]  00 00 00 00 00 00 00 00
 (2019-02-07 16:16:30.426914)  can0  006   [8]  00 00 00 00 00 00 0C 00
 (2019-02-07 16:16:30.430781)  can0  000   [8]  00 00 00 00 00 00 00 00
 (2019-02-07 16:16:30.430997)  can0  001   [7]  00 00 00 00 00 00 00
 (2019-02-07 16:16:30.431168)  can0  002   [4]  00 BC 00 16
 (2019-02-07 16:16:30.468403)  can0  003   [8]  CC 9F E4 9F 8F 9F 7E 9F
 (2019-02-07 16:16:30.468629)  can0  004   [8]  D5 9F 96 9F A3 9F E6 9F
 (2019-02-07 16:16:30.468862)  can0  005   [8]  00 00 00 00 00 00 00 00
 (2019-02-07 16:16:30.469104)  can0  006   [8]  00 00 00 00 00 00 0C 00
 (2019-02-07 16:16:30.472982)  can0  000   [8]  00 00 00 00 00 00 00 00
 (2019-02-07 16:16:30.473197)  can0  001   [7]  00 00 00 00 00 00 00
 (2019-02-07 16:16:30.473369)  can0  002   [4]  00 BC 00 16
 (2019-02-07 16:16:30.510638)  can0  003   [8]  D0 9F E6 9F 93 9F 84 9F
 (2019-02-07 16:16:30.510795)  can0  004   [8]  C7 9F 95 9F A1 9F E1 9F
 (2019-02-07 16:16:30.511065)  can0  005   [8]  00 00 00 00 00 00 00 00
 (2019-02-07 16:16:30.511316)  can0  006   [8]  00 00 00 00 00 00 0C 00
 (2019-02-07 16:16:30.515214)  can0  000   [8]  00 00 00 00 00 00 00 00
 (2019-02-07 16:16:30.515396)  can0  001   [7]  00 00 00 00 00 00 00
 (2019-02-07 16:16:30.515574)  can0  002   [4]  00 BC 00 16
 (2019-02-07 16:16:30.552891)  can0  003   [8]  CA 9F E7 9F 97 9F 82 9F
 (2019-02-07 16:16:30.553007)  can0  004   [8]  C6 9F 95 9F A1 9F E1 9F
 (2019-02-07 16:16:30.553330)  can0  005   [8]  00 00 00 00 00 00 00 00
 (2019-02-07 16:16:30.553522)  can0  006   [8]  00 00 00 00 00 00 0C 00
 (2019-02-07 16:16:30.557457)  can0  000   [8]  00 00 00 00 00 00 00 00
 (2019-02-07 16:16:30.557574)  can0  001   [7]  00 00 00 00 00 00 00
 (2019-02-07 16:16:30.557795)  can0  002   [4]  00 BC 00 16
 (2019-02-07 16:16:30.595107)  can0  003   [8]  CE 9F E5 9F 8F 9F 84 9F
 (2019-02-07 16:16:30.595243)  can0  004   [8]  CB 9F 8D 9F A9 9F E5 9F
 (2019-02-07 16:16:30.595486)  can0  005   [8]  00 00 00 00 00 00 00 00
 (2019-02-07 16:16:30.595741)  can0  006   [8]  00 00 00 00 00 00 0C 00
 (2019-02-07 16:16:30.599617)  can0  000   [8]  00 00 00 00 00 00 00 00
 (2019-02-07 16:16:30.599807)  can0  001   [7]  00 00 00 00 00 00 00
 (2019-02-07 16:16:30.599999)  can0  002   [4]  00 BC 00 16
 (2019-02-07 16:16:30.637271)  can0  003   [8]  CC 9F E6 9F 8F 9F 81 9F
 (2019-02-07 16:16:30.637383)  can0  004   [8]  CE 9F 99 9F AD 9F E8 9F
 (2019-02-07 16:16:30.637694)  can0  005   [8]  00 00 00 00 00 00 00 00
 (2019-02-07 16:16:30.637911)  can0  006   [8]  00 00 00 00 00 00 0C 00
 (2019-02-07 16:16:30.641801)  can0  000   [8]  00 00 00 00 00 00 00 00
 (2019-02-07 16:16:30.642009)  can0  001   [7]  00 00 00 00 00 00 00
 (2019-02-07 16:16:30.642256)  can0  002   [4]  00 BC 00 16
 (2019-02-07 16:16:30.679417)  can0  003   [8]  CE 9F E6 9F 95 9F 82 9F
 (2019-02-07 16:16:30.679613)  can0  004   [8]  CD 9F 93 9F A3 9F E3 9F
 (2019-02-07 16:16:30.679866)  can0  005   [8]  00 00 00 00 00 00 00 00
 (2019-02-07 16:16:30.680116)  can0  006   [8]  00 00 00 00 00 00 0C 00
 (2019-02-07 16:16:30.683994)  can0  000   [8]  00 00 00 00 00 00 00 00
 (2019-02-07 16:16:30.684219)  can0  001   [7]  00 00 00 00 00 00 00
 (2019-02-07 16:16:30.684381)  can0  002   [4]  00 BC 00 16
 (2019-02-07 16:16:30.721699)  can0  003   [8]  CE 9F E7 9F 92 9F 81 9F
 (2019-02-07 16:16:30.721807)  can0  004   [8]  C9 9F 91 9F A1 9F E5 9F
 (2019-02-07 16:16:30.722218)  can0  005   [8]  00 00 00 00 00 00 00 00
 (2019-02-07 16:16:30.722282)  can0  006   [8]  00 00 00 00 00 00 0C 00
 (2019-02-07 16:16:30.726215)  can0  000   [8]  00 00 00 00 00 00 00 00
 (2019-02-07 16:16:30.726403)  can0  001   [7]  00 00 00 00 00 00 00
 (2019-02-07 16:16:30.726576)  can0  002   [4]  00 BC 00 16
 (2019-02-07 16:16:30.763845)  can0  003   [8]  D0 9F EA 9F 95 9F 85 9F
 (2019-02-07 16:16:30.764019)  can0  004   [8]  CB 9F 95 9F A3 9F E5 9F
 (2019-02-07 16:16:30.764295)  can0  005   [8]  00 00 00 00 00 00 00 00
 (2019-02-07 16:16:30.764525)  can0  006   [8]  00 00 00 00 00 00 0C 00
 (2019-02-07 16:16:30.768399)  can0  000   [8]  00 00 00 00 00 00 00 00
 (2019-02-07 16:16:30.768606)  can0  001   [7]  00 00 00 00 00 00 00
 (2019-02-07 16:16:30.768778)  can0  002   [4]  00 BC 00 16
 (2019-02-07 16:16:30.806021)  can0  003   [8]  D0 9F E6 9F 8B 9F 7E 9F
 (2019-02-07 16:16:30.806211)  can0  004   [8]  CC 9F 96 9F A7 9F DD 9F
 (2019-02-07 16:16:30.806471)  can0  005   [8]  00 00 00 00 00 00 00 00
 (2019-02-07 16:16:30.806719)  can0  006   [8]  00 00 00 00 00 00 0C 00
 (2019-02-07 16:16:30.810590)  can0  000   [8]  00 00 00 00 00 00 00 00
 (2019-02-07 16:16:30.810807)  can0  001   [7]  00 00 00 00 00 00 00
 (2019-02-07 16:16:30.810977)  can0  002   [4]  00 BC 00 16
 (2019-02-07 16:16:30.848215)  can0  003   [8]  CD 9F E6 9F 96 9F 87 9F
 (2019-02-07 16:16:30.848429)  can0  004   [8]  CA 9F 97 9F A6 9F E1 9F
 (2019-02-07 16:16:30.848678)  can0  005   [8]  00 00 00 00 00 00 00 00
 (2019-02-07 16:16:30.848947)  can0  006   [8]  00 00 00 00 00 00 0C 00
 (2019-02-07 16:16:30.852794)  can0  000   [8]  00 00 00 00 00 00 00 00
 (2019-02-07 16:16:30.853008)  can0  001   [7]  00 00 00 00 00 00 00
 (2019-02-07 16:16:30.853175)  can0  002   [4]  00 BC 00 16
 (2019-02-07 16:16:30.890473)  can0  003   [8]  D0 9F E2 9F 92 9F 80 9F
 (2019-02-07 16:16:30.890581)  can0  004   [8]  CA 9F 8D 9F A1 9F E4 9F
 (2019-02-07 16:16:30.890909)  can0  005   [8]  00 00 00 00 00 00 00 00
 (2019-02-07 16:16:30.891116)  can0  006   [8]  00 00 00 00 00 00 0C 00
 (2019-02-07 16:16:30.895063)  can0  000   [8]  00 00 00 00 00 00 00 00
 (2019-02-07 16:16:30.895222)  can0  001   [7]  00 00 00 00 00 00 00
 (2019-02-07 16:16:30.895398)  can0  002   [4]  00 BC 00 16
 (2019-02-07 16:16:30.932685)  can0  003   [8]  D0 9F EC 9F 97 9F 7D 9F
 (2019-02-07 16:16:30.932799)  can0  004   [8]  C7 9F 92 9F A4 9F E2 9F
 (2019-02-07 16:16:30.933137)  can0  005   [8]  00 00 00 00 00 00 00 00
 (2019-02-07 16:16:30.933319)  can0  006   [8]  00 00 00 00 00 00 0C 00
 (2019-02-07 16:16:30.937257)  can0  000   [8]  00 00 00 00 00 00 00 00
 (2019-02-07 16:16:30.937431)  can0  001   [7]  00 00 00 00 00 00 00
 (2019-02-07 16:16:30.937610)  can0  002   [4]  00 BC 00 16
 (2019-02-07 16:16:30.974900)  can0  003   [8]  CE 9F E1 9F 8F 9F 82 9F
 (2019-02-07 16:16:30.975013)  can0  004   [8]  CB 9F 95 9F A8 9F E8 9F
 (2019-02-07 16:16:30.975347)  can0  005   [8]  00 00 00 00 00 00 00 00
 (2019-02-07 16:16:30.975520)  can0  006   [8]  00 00 00 00 00 00 0C 00
 (2019-02-07 16:16:30.979441)  can0  000   [8]  00 00 00 00 00 00 00 00
 (2019-02-07 16:16:30.979637)  can0  001   [7]  00 00 00 00 00 00 00
 (2019-02-07 16:16:30.979822)  can0  002   [4]  00 BC 00 16
 (2019-02-07 16:16:31.017027)  can0  003   [8]  CC 9F E9 9F 89 9F 84 9F
 (2019-02-07 16:16:31.017222)  can0  004   [8]  C7 9F 91 9F A6 9F E6 9F
 (2019-02-07 16:16:31.017478)  can0  005   [8]  00 00 00 00 00 00 00 00
 (2019-02-07 16:16:31.017722)  can0  006   [8]  00 00 00 00 00 00 0C 00
 (2019-02-07 16:16:31.021611)  can0  000   [8]  00 00 00 00 00 00 00 00
 (2019-02-07 16:16:31.021830)  can0  001   [7]  00 00 00 00 00 00 00
 (2019-02-07 16:16:31.021984)  can0  002   [4]  00 BC 00 16
 (2019-02-07 16:16:31.059217)  can0  003   [8]  CE 9F E8 9F 91 9F 87 9F
 (2019-02-07 16:16:31.059438)  can0  004   [8]  C5 9F 91 9F A9 9F E4 9F
 (2019-02-07 16:16:31.059680)  can0  005   [8]  00 00 00 00 00 00 00 00
 (2019-02-07 16:16:31.059918)  can0  006   [8]  00 00 00 00 00 00 0C 00
 (2019-02-07 16:16:31.063865)  can0  000   [8]  00 00 00 00 00 00 00 00
 (2019-02-07 16:16:31.064039)  can0  001   [7]  00 00 00 00 00 00 00
 (2019-02-07 16:16:31.064197)  can0  002   [4]  00 BC 00 16
 (2019-02-07 16:16:31.101497)  can0  003   [8]  CE 9F E3 9F 8F 9F 84 9F
 (2019-02-07 16:16:31.101612)  can0  004   [8]  C7 9F 91 9F A9 9F E5 9F
 (2019-02-07 16:16:31.101903)  can0  005   [8]  00 00 00 00 00 00 00 00
 (2019-02-07 16:16:31.102208)  can0  006   [8]  00 00 00 00 00 00 0C 00
 (2019-02-07 16:16:31.106104)  can0  000   [8]  00 00 00 00 00 00 00 00
 (2019-02-07 16:16:31.106211)  can0  001   [7]  00 00 00 00 00 00 00
 (2019-02-07 16:16:31.106409)  can0  002   [4]  00 BC 00 16
 (2019-02-07 16:16:31.143670)  can0  003   [8]  D6 9F E6 9F 8F 9F 81 9F
 (2019-02-07 16:16:31.143850)  can0  004   [8]  CB 9F 97 9F A6 9F E7 9F
 (2019-02-07 16:16:31.144104)  can0  005   [8]  00 00 00 00 00 00 00 00
 (2019-02-07 16:16:31.144339)  can0  006   [8]  00 00 00 00 00 00 0C 00
 (2019-02-07 16:16:31.148199)  can0  000   [8]  00 00 00 00 00 00 00 00
 (2019-02-07 16:16:31.148425)  can0  001   [7]  00 00 00 00 00 00 00
 (2019-02-07 16:16:31.148598)  can0  002   [4]  00 BC 00 16
 (2019-02-07 16:16:31.185862)  can0  003   [8]  D0 9F E6 9F 92 9F 85 9F
 (2019-02-07 16:16:31.186025)  can0  004   [8]  C8 9F 97 9F A1 9F E0 9F
 (2019-02-07 16:16:31.186291)  can0  005   [8]  00 00 00 00 00 00 00 00
 (2019-02-07 16:16:31.186533)  can0  006   [8]  00 00 00 00 00 00 0C 00
 (2019-02-07 16:16:31.190430)  can0  000   [8]  00 00 00 00 00 00 00 00
 (2019-02-07 16:16:31.190633)  can0  001   [7]  00 00 00 00 00 00 00
 (2019-02-07 16:16:31.190807)  can0  002   [4]  00 BC 00 16
 (2019-02-07 16:16:31.228151)  can0  003   [8]  CE 9F E2 9F 8B 9F 7E 9F
 (2019-02-07 16:16:31.228274)  can0  004   [8]  CB 9F 9B 9F A5 9F E7 9F
 (2019-02-07 16:16:31.228515)  can0  005   [8]  00 00 00 00 00 00 00 00
 (2019-02-07 16:16:31.228772)  can0  006   [8]  00 00 00 00 00 00 0C 00
 (2019-02-07 16:16:31.232705)  can0  000   [8]  00 00 00 00 00 00 00 00
 (2019-02-07 16:16:31.232828)  can0  001   [7]  00 00 00 00 00 00 00
 (2019-02-07 16:16:31.233101)  can0  002   [4]  00 BC 00 16
 (2019-02-07 16:16:31.270289)  can0  003   [8]  D4 9F E8 9F 97 9F 86 9F
 (2019-02-07 16:16:31.270400)  can0  004   [8]  CF 9F 94 9F 9B 9F DE 9F
 (2019-02-07 16:16:31.270712)  can0  005   [8]  00 00 00 00 00 00 00 00
 (2019-02-07 16:16:31.270945)  can0  006   [8]  00 00 00 00 00 00 0C 00
 (2019-02-07 16:16:31.274819)  can0  000   [8]  00 00 00 00 00 00 00 00
 (2019-02-07 16:16:31.275034)  can0  001   [7]  00 00 00 00 00 00 00
 (2019-02-07 16:16:31.275201)  can0  002   [4]  00 BC 00 16
 (2019-02-07 16:16:31.312422)  can0  003   [8]  CE 9F E2 9F 8F 9F 7D 9F
 (2019-02-07 16:16:31.312642)  can0  004   [8]  D1 9F 9B 9F A7 9F E2 9F
 (2019-02-07 16:16:31.312889)  can0  005   [8]  00 00 00 00 00 00 00 00
 (2019-02-07 16:16:31.313137)  can0  006   [8]  00 00 00 00 00 00 0C 00
 (2019-02-07 16:16:31.316997)  can0  000   [8]  00 00 00 00 00 00 00 00
 (2019-02-07 16:16:31.317232)  can0  001   [7]  00 00 00 00 00 00 00
 (2019-02-07 16:16:31.317401)  can0  002   [4]  00 BC 00 16
 (2019-02-07 16:16:31.354631)  can0  003   [8]  CB 9F E4 9F 90 9F 82 9F
 (2019-02-07 16:16:31.354843)  can0  004   [8]  CF 9F 94 9F A8 9F E4 9F
 (2019-02-07 16:16:31.355088)  can0  005   [8]  00 00 00 00 00 00 00 00
 (2019-02-07 16:16:31.355336)  can0  006   [8]  00 00 00 00 00 00 0C 00
 (2019-02-07 16:16:31.359200)  can0  000   [8]  00 00 00 00 00 00 00 00
 (2019-02-07 16:16:31.359433)  can0  001   [7]  00 00 00 00 00 00 00
 (2019-02-07 16:16:31.359603)  can0  002   [4]  00 BC 00 16
 (2019-02-07 16:16:31.396825)  can0  003   [8]  D8 9F E6 9F 93 9F 81 9F
 (2019-02-07 16:16:31.397038)  can0  004   [8]  C9 9F 93 9F A4 9F E2 9F
 (2019-02-07 16:16:31.397293)  can0  005   [8]  00 00 00 00 00 00 00 00
 (2019-02-07 16:16:31.397533)  can0  006   [8]  00 00 00 00 00 00 0C 00
 (2019-02-07 16:16:31.401400)  can0  000   [8]  00 00 00 00 00 00 00 00
 (2019-02-07 16:16:31.401629)  can0  001   [7]  00 00 00 00 00 00 00
 (2019-02-07 16:16:31.401801)  can0  002   [4]  00 BC 00 16
 (2019-02-07 16:16:31.439199)  can0  003   [8]  CC 9F E5 9F 92 9F 7F 9F
 (2019-02-07 16:16:31.439326)  can0  004   [8]  C8 9F 92 9F A1 9F E6 9F
 (2019-02-07 16:16:31.439514)  can0  005   [8]  00 00 00 00 00 00 00 00
 (2019-02-07 16:16:31.439776)  can0  006   [8]  00 00 00 00 00 00 0C 00
 (2019-02-07 16:16:31.443749)  can0  000   [8]  00 00 00 00 00 00 00 00
 (2019-02-07 16:16:31.443865)  can0  001   [7]  00 00 00 00 00 00 00
 (2019-02-07 16:16:31.444030)  can0  002   [4]  00 BC 00 16
 (2019-02-07 16:16:31.481352)  can0  003   [8]  D1 9F E0 9F 92 9F 80 9F
 (2019-02-07 16:16:31.481491)  can0  004   [8]  C9 9F 97 9F A9 9F E9 9F
 (2019-02-07 16:16:31.481732)  can0  005   [8]  00 00 00 00 00 00 00 00
 (2019-02-07 16:16:31.481999)  can0  006   [8]  00 00 00 00 00 00 0C 00
 (2019-02-07 16:16:31.485851)  can0  000   [8]  00 00 00 00 00 00 00 00
 (2019-02-07 16:16:31.486041)  can0  001   [7]  00 00 00 00 00 00 00
 (2019-02-07 16:16:31.486211)  can0  002   [4]  00 BC 00 16
 (2019-02-07 16:16:31.523512)  can0  003   [8]  D4 9F E6 9F 92 9F 83 9F
 (2019-02-07 16:16:31.523616)  can0  004   [8]  CB 9F 96 9F A7 9F E4 9F
 (2019-02-07 16:16:31.523935)  can0  005   [8]  00 00 00 00 00 00 00 00
 (2019-02-07 16:16:31.524162)  can0  006   [8]  00 00 00 00 00 00 0C 00
 (2019-02-07 16:16:31.528152)  can0  000   [8]  00 00 00 00 00 00 00 00
 (2019-02-07 16:16:31.528287)  can0  001   [7]  00 00 00 00 00 00 00
 (2019-02-07 16:16:31.528372)  can0  002   [4]  00 BC 00 16
 (2019-02-07 16:16:31.565760)  can0  003   [8]  D2 9F E0 9F 95 9F 88 9F
 (2019-02-07 16:16:31.565885)  can0  004   [8]  C7 9F 93 9F A5 9F EB 9F
 (2019-02-07 16:16:31.566124)  can0  005   [8]  00 00 00 00 00 00 00 00
 (2019-02-07 16:16:31.566384)  can0  006   [8]  00 00 00 00 00 00 0C 00
 (2019-02-07 16:16:31.570297)  can0  000   [8]  00 00 00 00 00 00 00 00
 (2019-02-07 16:16:31.570392)  can0  001   [7]  00 00 00 00 00 00 00
 (2019-02-07 16:16:31.570627)  can0  002   [4]  00 BC 00 16
 (2019-02-07 16:16:31.607901)  can0  003   [8]  D4 9F E2 9F 8C 9F 88 9F
 (2019-02-07 16:16:31.608014)  can0  004   [8]  CF 9F 96 9F A9 9F E5 9F
 (2019-02-07 16:16:31.608321)  can0  005   [8]  00 00 00 00 00 00 00 00
 (2019-02-07 16:16:31.608554)  can0  006   [8]  00 00 00 00 00 00 0C 00
 (2019-02-07 16:16:31.612412)  can0  000   [8]  00 00 00 00 00 00 00 00
 (2019-02-07 16:16:31.612642)  can0  001   [7]  00 00 00 00 00 00 00
 (2019-02-07 16:16:31.612812)  can0  002   [4]  00 BC 00 16
 (2019-02-07 16:16:31.650026)  can0  003   [8]  D5 9F E8 9F 8F 9F 82 9F
 (2019-02-07 16:16:31.650251)  can0  004   [8]  CD 9F 99 9F A4 9F E3 9F
 (2019-02-07 16:16:31.650495)  can0  005   [8]  00 00 00 00 00 00 00 00
 (2019-02-07 16:16:31.650746)  can0  006   [8]  00 00 00 00 00 00 0C 00
 (2019-02-07 16:16:31.654610)  can0  000   [8]  00 00 00 00 00 00 00 00
 (2019-02-07 16:16:31.654844)  can0  001   [7]  00 00 00 00 00 00 00
 (2019-02-07 16:16:31.655010)  can0  002   [4]  00 BC 00 16
 (2019-02-07 16:16:31.692250)  can0  003   [8]  D2 9F E3 9F 93 9F 81 9F
 (2019-02-07 16:16:31.692451)  can0  004   [8]  CB 9F 91 9F A8 9F E8 9F
 (2019-02-07 16:16:31.692698)  can0  005   [8]  00 00 00 00 00 00 00 00
 (2019-02-07 16:16:31.692945)  can0  006   [8]  00 00 00 00 00 00 0C 00
 (2019-02-07 16:16:31.696810)  can0  000   [8]  00 00 00 00 00 00 00 00
 (2019-02-07 16:16:31.697040)  can0  001   [7]  00 00 00 00 00 00 00
 (2019-02-07 16:16:31.697213)  can0  002   [4]  00 BC 00 16
 (2019-02-07 16:16:31.734439)  can0  003   [8]  CE 9F E9 9F 8F 9F 8A 9F
 (2019-02-07 16:16:31.734651)  can0  004   [8]  CE 9F 92 9F A3 9F E3 9F
 (2019-02-07 16:16:31.734912)  can0  005   [8]  00 00 00 00 00 00 00 00
 (2019-02-07 16:16:31.735142)  can0  006   [8]  00 00 00 00 00 00 0C 00
 (2019-02-07 16:16:31.739024)  can0  000   [8]  00 00 00 00 00 00 00 00
 (2019-02-07 16:16:31.739247)  can0  001   [7]  00 00 00 00 00 00 00
 (2019-02-07 16:16:31.739413)  can0  002   [4]  00 BC 00 16
 (2019-02-07 16:16:31.776622)  can0  003   [8]  D0 9F E4 9F 93 9F 81 9F
 (2019-02-07 16:16:31.776852)  can0  004   [8]  C9 9F 94 9F A9 9F DF 9F
 (2019-02-07 16:16:31.777096)  can0  005   [8]  00 00 00 00 00 00 00 00
 (2019-02-07 16:16:31.777344)  can0  006   [8]  00 00 00 00 00 00 0C 00
 (2019-02-07 16:16:31.781229)  can0  000   [8]  00 00 00 00 00 00 00 00
 (2019-02-07 16:16:31.781444)  can0  001   [7]  00 00 00 00 00 00 00
 (2019-02-07 16:16:31.781613)  can0  002   [4]  00 BC 00 16
 (2019-02-07 16:16:31.818889)  can0  003   [8]  D2 9F E5 9F 97 9F 80 9F
 (2019-02-07 16:16:31.819053)  can0  004   [8]  CC 9F 91 9F A7 9F E1 9F
 (2019-02-07 16:16:31.819309)  can0  005   [8]  00 00 00 00 00 00 00 00
 (2019-02-07 16:16:31.819553)  can0  006   [8]  00 00 00 00 00 00 0C 00
 (2019-02-07 16:16:31.823421)  can0  000   [8]  00 00 00 00 00 00 00 00
 (2019-02-07 16:16:31.823648)  can0  001   [7]  00 00 00 00 00 00 00
 (2019-02-07 16:16:31.823816)  can0  002   [4]  00 BC 00 16
 (2019-02-07 16:16:31.861113)  can0  003   [8]  D2 9F E8 9F 90 9F 84 9F
 (2019-02-07 16:16:31.861225)  can0  004   [8]  CD 9F 95 9F A5 9F E9 9F
 (2019-02-07 16:16:31.861527)  can0  005   [8]  00 00 00 00 00 00 00 00
 (2019-02-07 16:16:31.861770)  can0  006   [8]  00 00 00 00 00 00 0C 00
 (2019-02-07 16:16:31.865720)  can0  000   [8]  00 00 00 00 00 00 00 00
 (2019-02-07 16:16:31.865838)  can0  001   [7]  00 00 00 00 00 00 00
 (2019-02-07 16:16:31.866082)  can0  002   [4]  00 BC 00 16
 (2019-02-07 16:16:31.903332)  can0  003   [8]  D3 9F E0 9F 91 9F 80 9F
 (2019-02-07 16:16:31.903435)  can0  004   [8]  C9 9F 95 9F A7 9F E7 9F
 (2019-02-07 16:16:31.903729)  can0  005   [8]  00 00 00 00 00 00 00 00
 (2019-02-07 16:16:31.903980)  can0  006   [8]  00 00 00 00 00 00 0C 00
 (2019-02-07 16:16:31.907942)  can0  000   [8]  00 00 00 00 00 00 00 00
 (2019-02-07 16:16:31.908034)  can0  001   [7]  00 00 00 00 00 00 00
 (2019-02-07 16:16:31.908216)  can0  002   [4]  00 BC 00 16
 (2019-02-07 16:16:31.945497)  can0  003   [8]  D0 9F DC 9F 91 9F 86 9F
 (2019-02-07 16:16:31.945667)  can0  004   [8]  CC 9F 97 9F A7 9F DF 9F
 (2019-02-07 16:16:31.945922)  can0  005   [8]  00 00 00 00 00 00 00 00
 (2019-02-07 16:16:31.946161)  can0  006   [8]  00 00 00 00 00 00 0C 00
 (2019-02-07 16:16:31.950023)  can0  000   [8]  00 00 00 00 00 00 00 00
 (2019-02-07 16:16:31.950249)  can0  001   [7]  00 00 00 00 00 00 00
 (2019-02-07 16:16:31.950420)  can0  002   [4]  00 BC 00 16
 (2019-02-07 16:16:31.987673)  can0  003   [8]  CE 9F E6 9F 95 9F 84 9F
 (2019-02-07 16:16:31.987884)  can0  004   [8]  CC 9F 8F 9F A0 9F E1 9F
 (2019-02-07 16:16:31.988112)  can0  005   [8]  00 00 00 00 00 00 00 00
 (2019-02-07 16:16:31.988357)  can0  006   [8]  00 00 00 00 00 00 0C 00
 (2019-02-07 16:16:31.992235)  can0  000   [8]  00 00 00 00 00 00 00 00
 (2019-02-07 16:16:31.992452)  can0  001   [7]  00 00 00 00 00 00 00
 (2019-02-07 16:16:31.992621)  can0  002   [4]  00 BC 00 16
 (2019-02-07 16:16:32.029848)  can0  003   [8]  D5 9F E1 9F 8D 9F 7D 9F
 (2019-02-07 16:16:32.030067)  can0  004   [8]  CA 9F 95 9F A7 9F DF 9F
 (2019-02-07 16:16:32.030314)  can0  005   [8]  00 00 00 00 00 00 00 00
 (2019-02-07 16:16:32.030558)  can0  006   [8]  00 00 00 00 00 00 0C 00
 (2019-02-07 16:16:32.034430)  can0  000   [8]  00 00 00 00 00 00 00 00
 (2019-02-07 16:16:32.034658)  can0  001   [7]  00 00 00 00 00 00 00
 (2019-02-07 16:16:32.034836)  can0  002   [4]  00 BC 00 16
 (2019-02-07 16:16:32.072250)  can0  003   [8]  D6 9F E9 9F 91 9F 86 9F
 (2019-02-07 16:16:32.072365)  can0  004   [8]  C8 9F 99 9F A5 9F E5 9F
 (2019-02-07 16:16:32.072520)  can0  005   [8]  00 00 00 00 00 00 00 00
 (2019-02-07 16:16:32.072810)  can0  006   [8]  00 00 00 00 00 00 0C 00
 (2019-02-07 16:16:32.076713)  can0  000   [8]  00 00 00 00 00 00 00 00
 (2019-02-07 16:16:32.076822)  can0  001   [7]  00 00 00 00 00 00 00
 (2019-02-07 16:16:32.077070)  can0  002   [4]  00 BC 00 16
 (2019-02-07 16:16:32.114302)  can0  003   [8]  D6 9F E8 9F 99 9F 86 9F
 (2019-02-07 16:16:32.114479)  can0  004   [8]  CA 9F 96 9F A7 9F DF 9F
 (2019-02-07 16:16:32.114745)  can0  005   [8]  00 00 00 00 00 00 00 00
 (2019-02-07 16:16:32.114981)  can0  006   [8]  00 00 00 00 00 00 0C 00
 (2019-02-07 16:16:32.118846)  can0  000   [8]  00 00 00 00 00 00 00 00
 (2019-02-07 16:16:32.119060)  can0  001   [7]  00 00 00 00 00 00 00
 (2019-02-07 16:16:32.119230)  can0  002   [4]  00 BC 00 16
 (2019-02-07 16:16:32.156514)  can0  003   [8]  D4 9F EC 9F 91 9F 84 9F
 (2019-02-07 16:16:32.156616)  can0  004   [8]  D1 9F 96 9F AB 9F DC 9F
 (2019-02-07 16:16:32.156951)  can0  005   [8]  00 00 00 00 00 00 00 00
 (2019-02-07 16:16:32.157167)  can0  006   [8]  00 00 00 00 00 00 0C 00
 (2019-02-07 16:16:32.161098)  can0  000   [8]  00 00 00 00 00 00 00 00
 (2019-02-07 16:16:32.161274)  can0  001   [7]  00 00 00 00 00 00 00
 (2019-02-07 16:16:32.161447)  can0  002   [4]  00 BC 00 16
 (2019-02-07 16:16:32.198747)  can0  003   [8]  D6 9F E5 9F 92 9F 83 9F
 (2019-02-07 16:16:32.198866)  can0  004   [8]  CA 9F 95 9F A3 9F DD 9F
 (2019-02-07 16:16:32.199132)  can0  005   [8]  00 00 00 00 00 00 00 00
 (2019-02-07 16:16:32.199375)  can0  006   [8]  00 00 00 00 00 00 0C 00
 (2019-02-07 16:16:32.203249)  can0  000   [8]  00 00 00 00 00 00 00 00
 (2019-02-07 16:16:32.203458)  can0  001   [7]  00 00 00 00 00 00 00
 (2019-02-07 16:16:32.203627)  can0  002   [4]  00 BC 00 16
 (2019-02-07 16:16:32.240863)  can0  003   [8]  D2 9F E4 9F 8F 9F 82 9F
 (2019-02-07 16:16:32.241077)  can0  004   [8]  C9 9F 8F 9F A5 9F E5 9F
 (2019-02-07 16:16:32.241317)  can0  005   [8]  00 00 00 00 00 00 00 00
